(1702007190.848294) can0 0C0#0000000001008403
(1702007190.849152) can1 121#0D001C002DFC
(1702007190.849224) can1 123#8AC9201D423E4901
(1702007190.849253) can1 122#000001000000
(1702007190.849335) can1 124#F9FF0A002900
(1702007190.849439) can1 125#F8FF09002900
(1702007190.849551) can1 150#58DFFD01FF01
(1702007190.849705) can1 151#C8F4B6F96102
(1702007190.849807) can1 152#0D001C002DFC
(1702007190.849918) can1 171#00000000FFFF
(1702007190.850047) can1 174#70E1FC0180808101
(1702007190.850161) can1 175#76D5D9EBB0B0EC59
(1702007190.850237) can1 708#0A000800
(1702007190.850367) can1 176#170101001D0F07FF
(1702007190.850466) can1 709#FF7FFF7FAA5C
(1702007190.850582) can1 70A#8F0088008600
(1702007190.850639) can1 70B#21
(1702007190.850788) can1 704#FF7F1D00FF7FFF7F
(1702007190.850901) can1 705#000000000000
(1702007190.851023) can1 706#61F600000080
(1702007190.851157) can1 707#FF7F820001000000
(1702007190.853106) can1 610#FF70000F03EC
(1702007190.853127) can0 0C0#0000000001008403
(1702007190.853184) can1 611#00000001FFFA
(1702007190.853234) can1 612#FF21FEC0048D
(1702007190.853283) can0 6B0#000016F6B6184800
(1702007190.853345) can1 613#0AEF0052FFF7
(1702007190.858298) can0 0C0#0000000001008403
(1702007190.858886) can1 121#0E001A002CFC
(1702007190.858991) can1 122#000000000000
(1702007190.859109) can1 123#8AC9201D423E4901
(1702007190.859218) can1 124#F9FF0A002900
(1702007190.859326) can1 125#F8FF09002900
(1702007190.860133) can1 708#0A000800
(1702007190.860255) can1 709#FF7FFF7FAA5C
(1702007190.860370) can1 70A#8F0088008600
(1702007190.860466) can1 70B#21
(1702007190.860607) can1 704#FF7F1D00FF7FFF7F
(1702007190.860721) can1 705#000000000000
(1702007190.860840) can1 706#61F600000080
(1702007190.860975) can1 707#FF7F820001000000
(1702007190.861270) can0 6B0#000016F6B6184800
(1702007190.861372) can0 6B5#02CE0102CE0102CE
(1702007190.861497) can0 6B7#00002C0404000000
(1702007190.861612) can0 6B4#9F74139F7D0F9F53
(1702007190.861728) can0 6B3#00E59E00B400A4B6
(1702007190.861848) can0 6B2#9000022800A30000
(1702007190.861978) can0 6B1#0000000041240000
(1702007190.862091) can0 6B6#0000000629282ECA
(1702007190.863109) can0 0C0#0000000001008403
(1702007190.868284) can0 0C0#0000000001008403
(1702007190.868986) can1 121#0E001C002EFC
(1702007190.869092) can1 122#000000000000
(1702007190.869213) can1 123#8AC9201D423E4901
(1702007190.869337) can1 124#F9FF0A002900
(1702007190.869362) can0 6B0#000016F6B6184800
(1702007190.869421) can1 125#F8FF09002900
(1702007190.869525) can1 150#782DFE01FF01
(1702007190.869691) can1 151#B3F4A5F96B02
(1702007190.869800) can1 152#0E001C002EFC
(1702007190.869911) can1 171#00000000FFFF
(1702007190.870035) can1 174#70E1FC0180808101
(1702007190.870154) can1 175#76D5D9EBB0B0EC59
(1702007190.870239) can1 708#0A000800
(1702007190.870356) can1 176#170101001D0F07FF
(1702007190.870459) can1 709#FF7FFF7F376B
(1702007190.870575) can1 70A#8F0088008600
(1702007190.870630) can1 70B#21
(1702007190.870781) can1 704#FF7F1D00FF7FFF7F
(1702007190.870898) can1 705#000000000000
(1702007190.871016) can1 706#61F600000080
(1702007190.871186) can0 1839F382#02242726161101DC
(1702007190.871213) can1 707#FF7F820001000000
(1702007190.873079) can1 610#FF70001003EC
(1702007190.873162) can0 0C0#0000000001008403
(1702007190.873196) can1 611#00010003FFFA
(1702007190.877293) can0 6B0#000016F6B6184800
(1702007190.877362) can0 6B5#02CE0102CE0102CE
(1702007190.877501) can0 6B7#00002C0404000000
(1702007190.877615) can0 6B4#9F74139F7D0F9F53
(1702007190.877731) can0 6B3#00E59E00B400A4B6
(1702007190.877852) can0 6B2#9000022800A30000
(1702007190.877971) can0 6B1#0000000041240000
(1702007190.878102) can0 6B6#0000000629282ECA
(1702007190.878457) can0 0C0#0000000001008403
(1702007190.878888) can1 121#0E001B002DFC
(1702007190.878985) can1 122#000000000000
(1702007190.879109) can1 123#89C9201D423E4901
(1702007190.879217) can1 124#F9FF0A002900
(1702007190.879325) can1 125#F8FF09002900
(1702007190.880379) can1 708#0A000800
(1702007190.880520) can1 709#FF7FFF7F376B
(1702007190.880634) can1 70A#8F0088008600
(1702007190.880705) can1 70B#21
(1702007190.880838) can1 704#FF7F1D00FF7FFF7F
(1702007190.881093) can1 705#000000000000
(1702007190.881205) can1 706#61F600000080
(1702007190.881342) can1 707#FF7F820001000000
(1702007190.883079) can0 0C0#0000000001008403
(1702007190.885278) can0 6B0#000016F6B6184800