(1705638751.941934) vcan0 474#8EB6967DC359
(1705638752.142366) vcan0 713#82D28B017B2D1673
(1705638752.342496) vcan0 0DF#21
(1705638752.542620) vcan0 6E4#342A33760B0B6234
(1705638752.742741) vcan0 432#2E76F00B7FA49068
(1705638752.942875) vcan0 7CD#15F081361F69F32A
(1705638753.143269) vcan0 3CF#806B7737B29F435B
(1705638753.343642) vcan0 63A#09
(1705638753.544130) vcan0 3B7#72DC5140CA92ED24
(1705638753.744521) vcan0 320#46C00318
(1705638753.913408) vcan0 705#39C2A37B95B17C57
(1705638753.944932) vcan0 285#3FA6ED106A899E
(1705638754.145352) vcan0 210#75940052
(1705638754.346148) vcan0 101#C2CA8D01
(1705638754.546626) vcan0 681#EE494E2D508ADF
(1705638754.747054) vcan0 2C3#022A233FFEF04C5E
(1705638754.915609) vcan0 705#7CB5585EA086E272
(1705638754.947233) vcan0 540#AD73C455F7384202
(1705638755.116049) vcan0 705#B10B0A4DBC54D851
(1705638755.147666) vcan0 4A4#C1CB2F27C43F996F
(1705638755.348097) vcan0 714#C333667F99496E
(1705638755.516882) vcan0 705#457CDD68E52BDC4B
(1705638755.548495) vcan0 66E#03D3
(1705638755.717344) vcan0 705#599BF853AF742617
(1705638755.748923) vcan0 276#C2C62631786BD457
(1705638755.949354) vcan0 21D#474C2F5A
(1705638756.117673) vcan0 705#46644B35451A805F
(1705638756.149567) vcan0 45B#EF72EB1F1E
(1705638756.317862) vcan0 705#4B9034312F539224
(1705638756.349981) vcan0 3A4#1C
(1705638756.518059) vcan0 705#DFD0B60101909225
(1705638756.550382) vcan0 4FD#DB618D27A199D735
(1705638756.750631) vcan0 3E9#65D97025FDD2C06E
(1705638756.918571) vcan0 705#D583734D2E8D8971
(1705638756.951098) vcan0 1A4#961C2F0C1310593F
(1705638757.118757) vcan0 705#11F1773DDF98933E
(1705638757.151489) vcan0 72B#92B08257A1919F4C
(1705638757.318942) vcan0 705#B6FABC3B85EE1C1A
(1705638757.351826) vcan0 713#19FD7324
(1705638757.552239) vcan0 0D8#
(1705638757.719330) vcan0 705#0EEE39132306F356
(1705638757.752631) vcan0 796#5174C7723A2B6472
(1705638757.919518) vcan0 705#93766479B677FE37
(1705638757.953034) vcan0 1AF#1F54AF17AC2ECE36
(1705638758.153446) vcan0 037#4EC8A56C20DC3C35
(1705638758.320346) vcan0 705#87B65654476C7E1E
(1705638758.353854) vcan0 397#1DAFFD
(1705638758.520679) vcan0 705#30A41A6A263D3520
(1705638758.554038) vcan0 6DC#4FAD435B
(1705638758.721138) vcan0 705#0555DA2DFCC4FB7D
(1705638758.754430) vcan0 34E#A8
(1705638758.921535) vcan0 705#61E0FD18D1486F4B
(1705638758.954842) vcan0 535#91DB
(1705638759.121929) vcan0 705#5DF20377E339E708
(1705638759.155249) vcan0 622#4033F01CB84DF061
(1705638759.322368) vcan0 705#1659E2269934A444
(1705638759.355686) vcan0 21D#F3
(1705638759.522800) vcan0 705#DD136858C847F20B
(1705638759.556121) vcan0 3FF#78A2
(1705638759.723222) vcan0 705#8AFAC955D6352C1F
(1705638759.756478) vcan0 30C#57101E01A466
(1705638759.923619) vcan0 705#E655526A69AC9018
(1705638759.956880) vcan0 47A#E003255556
(1705638760.157272) vcan0 329#5D516B747746B14C
(1705638760.324356) vcan0 705#B39477189D13F323
(1705638760.357706) vcan0 710#D858631845
(1705638760.558127) vcan0 5C7#52C26C15EA0B1F66
(1705638760.725220) vcan0 705#2524D414D20CE83B
(1705638760.758524) vcan0 1C8#A259
(1705638760.958854) vcan0 523#B1E7116723
(1705638761.125769) vcan0 705#2A80AE4E90DFE94B
(1705638761.159225) vcan0 7A7#5AFD663BB422A833
(1705638761.325964) vcan0 705#A40DF462A638CC72
(1705638761.359597) vcan0 4F0#58
(1705638761.560010) vcan0 526#C0BCC0524F58E936
(1705638761.726437) vcan0 705#6B70B3420E47FE20
(1705638761.760554) vcan0 667#C69E9A03774D9F55
(1705638761.960997) vcan0 723#BC313E74EA249F7E
(1705638762.126934) vcan0 705#F8C1510B1F85F51C
(1705638762.161187) vcan0 407#D430BE64D0ED0569
(1705638762.361576) vcan0 1A0#B5613D34C3861C
(1705638762.527321) vcan0 705#7AAF00053EAE4979
(1705638762.561972) vcan0 50C#E64FA26DB4FC98
(1705638762.727722) vcan0 705#84994C7163D21D0E
(1705638762.762397) vcan0 391#
(1705638762.928141) vcan0 705#8B48945BF45D1A07
(1705638762.962930) vcan0 2F2#
(1705638763.163357) vcan0 5F8#6880187E5F749B26
(1705638763.363755) vcan0 4CA#D6C13A7CED1BBD26
(1705638763.564149) vcan0 6CD#D740
(1705638763.729786) vcan0 705#90866062D0E5C60C
(1705638763.764553) vcan0 7A0#A430124640D12B36
(1705638763.930226) vcan0 705#836AC1102643CA57
(1705638763.964994) vcan0 423#035848342F591900
(1705638764.130662) vcan0 705#DEFAB2571E051C63
(1705638764.165175) vcan0 3C1#E355B25152AFA86A
(1705638764.330930) vcan0 705#50E8406EB407061C
(1705638764.365599) vcan0 52A#D377BB381C508230
(1705638764.566028) vcan0 60B#3578B1770354427D
(1705638764.766189) vcan0 06C#62C8DD23365DEB6E
(1705638764.966571) vcan0 7CB#2379A815982E2E15
(1705638765.166736) vcan0 5CA#6D713A726A65B50A
(1705638765.366955) vcan0 3A6#AA
(1705638765.532979) vcan0 705#50787D0C35244822
(1705638765.567170) vcan0 46B#F980207C2C103B48
(1705638765.733445) vcan0 705#EC8FC46FC6AAA804
(1705638765.767557) vcan0 698#7EBFE332C22B0862
(1705638765.933740) vcan0 705#96EE097449156A15
(1705638765.967772) vcan0 428#DF7B
(1705638766.168198) vcan0 111#37BE1F6B
(1705638766.368903) vcan0 4B1#B39E44687C048377
(1705638766.569314) vcan0 0D2#1533B10C9C8E
(1705638766.769704) vcan0 1D1#07F4
(1705638766.970026) vcan0 693#41
(1705638767.170444) vcan0 15F#2B8B0F32F7EF7B17
(1705638767.370868) vcan0 516#BA1B84793EC9D168
(1705638767.535459) vcan0 705#FE7C840C492C443B
(1705638767.571275) vcan0 1FC#7233AF560DFB6D0D
(1705638767.735831) vcan0 705#6C35985535BC082B
(1705638767.771674) vcan0 3AD#8B3CC7065E785016
(1705638767.972066) vcan0 042#DA7CD30D1489E27F
(1705638768.136604) vcan0 705#0DB517590095B222
(1705638768.172489) vcan0 315#B1178A3FE6C4EA25
(1705638768.372924) vcan0 471#5DC2FB23059BA850
(1705638768.537556) vcan0 705#C6899F1678050265
(1705638768.573343) vcan0 669#04167D3AC9EF8C15
(1705638768.773742) vcan0 5D8#C0DF082DEF0A5858
(1705638768.974127) vcan0 3D9#2DD42941D56D1222
(1705638769.138760) vcan0 705#97B4961206A06F70
(1705638769.174525) vcan0 313#E368802FC01EE648
(1705638769.339171) vcan0 705#8E1DD25FFCD9F37D
(1705638769.374704) vcan0 148#1E97365F8B71742A
(1705638769.575142) vcan0 0AC#9FFA562AC1734C12
(1705638769.740029) vcan0 705#34ABC93A668C1060
(1705638769.775321) vcan0 3E8#
(1705638769.940456) vcan0 705#E82E127E1060830B
(1705638769.975755) vcan0 608#5FB3A77172
(1705638770.140850) vcan0 705#E5C7C4561D159B64
(1705638770.176156) vcan0 2A3#3B447A
(1705638770.341468) vcan0 705#0A71941CADB0734E
(1705638770.376397) vcan0 292#6B7BEB666C56316A
(1705638770.541882) vcan0 705#A612C23D743A1365
(1705638770.576616) vcan0 776#41C4430C89B2AB24
(1705638770.776999) vcan0 738#4AD1916D
(1705638770.977399) vcan0 292#0BC20A443F535F17
(1705638771.142433) vcan0 705#1391C3037843A520
(1705638771.177799) vcan0 461#00C7AB294A406141
(1705638771.378237) vcan0 6FB#A458606204ED0A4C
(1705638771.543085) vcan0 705#7E392E334C33A17C
(1705638771.578642) vcan0 2AD#7641F8
(1705638771.779076) vcan0 566#CC
(1705638771.943452) vcan0 705#A8AAF032690D7D35
(1705638771.979506) vcan0 1AC#64960F0322C905
(1705638772.143634) vcan0 705#22EC68274FD5410C
(1705638772.179652) vcan0 0D0#AC7BB1550870
(1705638772.343832) vcan0 705#9DC2933E5946D628
(1705638772.380060) vcan0 7CA#88C0752F5D5A
(1705638772.544229) vcan0 705#0B999C28FF589866
(1705638772.580455) vcan0 55E#9CAD8254
(1705638772.744622) vcan0 705#F174A77717EFA749
(1705638772.780853) vcan0 73F#0A723F0B3A0E253A
(1705638772.945017) vcan0 705#A5A41A19B18C7547
(1705638772.981291) vcan0 444#3EFB2F06F16E271E
(1705638773.145432) vcan0 705#AF91BC63C41D394B
(1705638773.181727) vcan0 6B1#424C8456
(1705638773.382154) vcan0 265#0FECB25A126C900D
(1705638773.546277) vcan0 705#CB85D3578FE27C42
(1705638773.582507) vcan0 346#3435963E
(1705638773.782913) vcan0 51A#
(1705638773.983323) vcan0 5D6#41BF507535B3
(1705638774.183505) vcan0 73A#F5E47431796EF93B
(1705638774.383925) vcan0 17A#B47C1E76BE551328
(1705638774.548086) vcan0 705#9E68BE63FAE89161
(1705638774.584334) vcan0 1AD#B0C4
(1705638774.748524) vcan0 705#5A13F22AEB5D3959
(1705638774.784573) vcan0 4A7#75A4
(1705638774.948931) vcan0 705#B527A63B91025472
(1705638774.985309) vcan0 300#1EE3A133
(1705638775.185541) vcan0 2F8#5C8AC5
(1705638775.385962) vcan0 133#F754890B0AC70A5E
(1705638775.586384) vcan0 321#3F7AA1455B52941E
(1705638775.786808) vcan0 116#D5C08D5A
(1705638775.950475) vcan0 705#EDCD1B0ADC0AE326
(1705638775.987222) vcan0 633#4EB8C23AE0D71E5E
(1705638776.150665) vcan0 705#DE3484339843D414
(1705638776.187625) vcan0 57B#3ED01A4A226A7124
(1705638776.351129) vcan0 705#1E712E69EF3B7216
(1705638776.388020) vcan0 5F0#2FE182
(1705638776.551319) vcan0 705#B7F3AE478DA4307A
(1705638776.588460) vcan0 537#3747745D3018B566
(1705638776.788899) vcan0 4A0#4208113A
(1705638776.989330) vcan0 00E#DE6CE7542F6B9D26
(1705638777.189707) vcan0 172#8BBD314588F22111
(1705638777.390105) vcan0 651#
(1705638777.590282) vcan0 3E9#64D488236471
(1705638777.752949) vcan0 705#7D852737FAC9E244
(1705638777.790531) vcan0 265#87DB
(1705638777.953362) vcan0 705#C97C6A4AE797FE4E
(1705638777.990968) vcan0 155#46513E558C1E
(1705638778.153896) vcan0 705#4415A630C6CC8202
(1705638778.191148) vcan0 103#BC36B34CA45DDC1A
(1705638778.391563) vcan0 212#7803B91120B20C19
(1705638778.591771) vcan0 438#501DAA3FAA0D
(1705638778.755146) vcan0 705#850FFA25EB002840
(1705638778.792142) vcan0 773#3200F523C49DC812
(1705638778.992555) vcan0 13B#489A325824150715
(1705638779.192871) vcan0 2B1#88866D5216EDEB05
(1705638779.393260) vcan0 34E#6B053A03A32CEE4E
(1705638779.593678) vcan0 6C5#2F4B
(1705638779.757251) vcan0 705#8024C04D01FDB15B
(1705638779.794062) vcan0 730#6DFDFB2542591742
(1705638779.994472) vcan0 0EB#620B245B23
(1705638780.158106) vcan0 705#15A750010E8FC256
(1705638780.194637) vcan0 13B#CE6A
(1705638780.395174) vcan0 38D#
(1705638780.595563) vcan0 04B#EC714C59FC22AB79
(1705638780.795976) vcan0 766#1210977FB4
(1705638780.958871) vcan0 705#2B8563669B562D33
(1705638780.996410) vcan0 284#57AF823E4A799F40
(1705638781.159339) vcan0 705#7F07007FF5E13674
(1705638781.196841) vcan0 42F#1319BF4B5F5B
(1705638781.397262) vcan0 472#
(1705638781.559706) vcan0 705#78BD9E7B03A66F41
(1705638781.597689) vcan0 765#819A3452
(1705638781.798127) vcan0 0B6#4E51446744EC273E
(1705638781.998509) vcan0 04F#
(1705638782.160706) vcan0 705#5585EB5AF5519724
(1705638782.198913) vcan0 07A#96535012E0273B2A
(1705638782.361109) vcan0 705#A792D2485C03F627
(1705638782.399316) vcan0 36E#94AACF19F20D7367
(1705638782.561509) vcan0 705#DEDD6A2204FBD443
(1705638782.599755) vcan0 126#3C87122855E50170
(1705638782.761934) vcan0 705#B15A632F79DD6472
(1705638782.800173) vcan0 471#B5407656E4D0CF40
(1705638782.962366) vcan0 705#70D8837CA562C858
(1705638783.000359) vcan0 6CF#410E423E34CE
(1705638783.162607) vcan0 705#18F15425246AC857
(1705638783.200762) vcan0 55A#D456
(1705638783.363025) vcan0 705#0996951B859E962A
(1705638783.400998) vcan0 611#558A
(1705638783.601500) vcan0 7E2#FB
(1705638783.801907) vcan0 65A#3C40
(1705638784.002333) vcan0 63A#
(1705638784.202468) vcan0 4BB#B6642C512D99B6
(1705638784.364762) vcan0 705#6DE42916E6549C0C
(1705638784.402623) vcan0 747#116A8624162ED62D
(1705638784.565144) vcan0 705#A8C32952C532072F
(1705638784.603017) vcan0 2C1#4BFC
(1705638784.765534) vcan0 705#D11D0521768D6A5E
(1705638784.803212) vcan0 115#2DEE854A26CF7F3D
(1705638785.003630) vcan0 342#87ED
(1705638785.166118) vcan0 705#A73D9463FF564300
(1705638785.204055) vcan0 3E3#8173C6
(1705638785.366411) vcan0 705#D55AA91208EDD81B
(1705638785.404449) vcan0 715#061C130E4FE54B7C
(1705638785.604843) vcan0 68E#B0
(1705638785.805243) vcan0 2B9#767CE80500BA
(1705638786.005646) vcan0 6D1#16E80F059209EA
(1705638786.167433) vcan0 705#8604FE1C70705203
(1705638786.206064) vcan0 6DA#AE
(1705638786.367580) vcan0 705#D34F9336DE547C19
(1705638786.406638) vcan0 781#154FF63DC3321427
(1705638786.607073) vcan0 05D#E78D4250410C4626
(1705638786.767946) vcan0 705#29E87E7D5736AB0C
(1705638786.807469) vcan0 120#7FE6666F35583430
(1705638786.968133) vcan0 705#4F0F4475C6386135
(1705638787.007884) vcan0 526#843D802CB4
(1705638787.208091) vcan0 647#FD36116C
(1705638787.408475) vcan0 39A#006B1C1E
(1705638787.569120) vcan0 705#7F1F1441080A603F
(1705638787.608906) vcan0 1FB#FEE3C80BD5F8
(1705638787.769531) vcan0 705#F20D363AC0C6A815
(1705638787.809152) vcan0 778#C478162AF96E873A
(1705638788.009397) vcan0 588#BCA19B61E545733D
(1705638788.170363) vcan0 705#0518060876D6A65A
(1705638788.209772) vcan0 477#2652B9
(1705638788.370767) vcan0 705#C3FD262749263A11
(1705638788.410216) vcan0 10C#CCD5A62332
(1705638788.571170) vcan0 705#6738E452C5C45809
(1705638788.610504) vcan0 32B#
(1705638788.810914) vcan0 585#725A6F
(1705638788.972006) vcan0 705#AFA0D7663EBC1B7C
(1705638789.011325) vcan0 457#8BFB
(1705638789.211715) vcan0 088#28B77C540050C775
(1705638789.372837) vcan0 705#3AB9550F63E21430
(1705638789.412114) vcan0 535#F9BE4E30BDA23702
(1705638789.612506) vcan0 7C7#A3E8AA3F3E
(1705638789.773661) vcan0 705#A41D167ED50F5F2B
(1705638789.812923) vcan0 059#D5792A4D65C1AF6A
(1705638789.974080) vcan0 705#1535C7385C040E58
(1705638790.013346) vcan0 36F#97
(1705638790.174547) vcan0 705#A3ED9A34621C1460
(1705638790.213909) vcan0 2F1#0C58AB4F7618161B
(1705638790.414317) vcan0 260#9639CD2DB876912C
(1705638790.574878) vcan0 705#7E94634C8C521F5A
(1705638790.614519) vcan0 7F0#0B
(1705638790.775041) vcan0 705#E02AAC505CF8C707
(1705638790.815109) vcan0 4AA#79E025
(1705638790.975214) vcan0 705#9AF79F610B999F6E
(1705638791.015265) vcan0 420#9DD4
(1705638791.175780) vcan0 705#1BFDF427819A9469
(1705638791.215666) vcan0 028#
(1705638791.416169) vcan0 009#E651D703786BF537
(1705638791.576152) vcan0 705#3BC62812C3B17938
(1705638791.616573) vcan0 19B#121A147F8D3CCA69
(1705638791.776334) vcan0 705#741D725C67CF8F36
(1705638791.816986) vcan0 2FA#0355E0045A2DD174
(1705638792.017376) vcan0 49C#12A462218C9C807A
(1705638792.176914) vcan0 705#582BFF591FF2F123
(1705638792.217800) vcan0 3BA#052DDF1764D8D27E
(1705638792.377323) vcan0 705#B9F14052C108B357
(1705638792.418249) vcan0 551#440AFD5A71E1394F
(1705638792.618520) vcan0 4F0#59
(1705638792.818978) vcan0 421#993D005D2A94DC18
(1705638792.978331) vcan0 705#30EE3D08BABF6256
(1705638793.019133) vcan0 779#A3FFD1501469002C
(1705638793.178738) vcan0 705#CC08061ED5BC577E
(1705638793.219280) vcan0 0FC#A1A5CA15F6
(1705638793.379141) vcan0 705#C178BB75DE359705
(1705638793.419447) vcan0 3D4#51916D0170
(1705638793.619883) vcan0 13E#FD4C00
(1705638793.780012) vcan0 705#551F79768E193274
(1705638793.820310) vcan0 681#5D25
(1705638793.980431) vcan0 705#6683CB1AFC549630
(1705638794.020712) vcan0 780#43
(1705638794.180831) vcan0 705#D4EB2B175580950A
(1705638794.221086) vcan0 682#89E1367CA3AA033A
(1705638794.381245) vcan0 705#A370A0730E72D65C
(1705638794.421270) vcan0 01B#CE3E
(1705638794.581643) vcan0 705#980F505771509338
(1705638794.621687) vcan0 6A2#A8
(1705638794.782078) vcan0 705#18011F1543E02427
(1705638794.822113) vcan0 026#959B937CFAE33D12
(1705638794.982508) vcan0 705#F5EAB55A74CE622F
(1705638795.022546) vcan0 0EF#6B94BD1E2DD2
(1705638795.222942) vcan0 249#261F8337CA70723C
(1705638795.382917) vcan0 705#468BB72C02502443
(1705638795.423355) vcan0 36A#9C44CF7C
(1705638795.583475) vcan0 705#6AFC6C431C1BAA40
(1705638795.623741) vcan0 425#
(1705638795.823919) vcan0 47C#4B2D94
(1705638796.024339) vcan0 006#2B94BC75A8C65C56
(1705638796.184445) vcan0 705#6E08710DACA91A69
(1705638796.224799) vcan0 28A#46FE5346
(1705638796.425191) vcan0 31E#ABE6FC470DD4DF7A
(1705638796.585235) vcan0 705#06E33317E7290B34
(1705638796.625496) vcan0 6C1#3AA6F9620B29
(1705638796.825690) vcan0 47E#D5
(1705638797.025872) vcan0 1E5#D29A
(1705638797.186441) vcan0 705#C1DF9015D283CC32
(1705638797.226313) vcan0 052#B200C560CE7CB623
(1705638797.386875) vcan0 705#5BB3DF73180F845F
(1705638797.426739) vcan0 310#66D1275B16C3DC05
(1705638797.587299) vcan0 705#D4BCC557820BF122
(1705638797.627325) vcan0 217#BE
(1705638797.827715) vcan0 265#5347B34283
(1705638797.988103) vcan0 705#86E14343773CE84D
(1705638798.028115) vcan0 1E0#9001EB0BA2E85D26
(1705638798.228535) vcan0 115#AD1118089305E37D
(1705638798.388934) vcan0 705#144AB60E3E36D201
(1705638798.428972) vcan0 52C#7CBD
(1705638798.589364) vcan0 705#93B0901644190619
(1705638798.629403) vcan0 1F4#1BF5D1784662A268
(1705638798.829793) vcan0 27B#15DF580C8CB5963E
(1705638799.030239) vcan0 3CC#A2787344E3BDBD50
(1705638799.190650) vcan0 705#60648655F4333610
(1705638799.230488) vcan0 60C#85
(1705638799.390865) vcan0 705#48A1E4394FE71504
(1705638799.430959) vcan0 266#F5E55C7A46ACAF28
(1705638799.631383) vcan0 7D7#E8940D4FEC20
(1705638799.831818) vcan0 751#7F26631A7D
(1705638799.992057) vcan0 705#B1B8E3680F488B72
(1705638800.032210) vcan0 218#8E732B280CDCAA3E
(1705638800.232502) vcan0 44A#533E4D27C546F46C
(1705638800.432925) vcan0 677#51FC8A2B43828400
(1705638800.633330) vcan0 5E3#27404251
(1705638800.793673) vcan0 705#7C95AF56DDFF8252
(1705638800.833691) vcan0 755#619CDD3CBB01E653
(1705638800.994089) vcan0 705#AF4EF90A95FE1311
(1705638801.034155) vcan0 485#01AE957C5C046F
(1705638801.234484) vcan0 1DD#4825EF162EF9AE32
(1705638801.434674) vcan0 17F#ABF53C31973B33
(1705638801.635067) vcan0 7C3#A417DE5E0D6C9A32
(1705638801.795734) vcan0 705#7740FF65AA087A4B
(1705638801.835463) vcan0 1E2#D2B28E1F5A30FA
(1705638802.035890) vcan0 35F#9DB27E75
(1705638802.236332) vcan0 418#31258428
(1705638802.436725) vcan0 571#289DA9
(1705638802.597520) vcan0 705#8B171F14A4C48B2E
(1705638802.637127) vcan0 3EA#52C67D3FC7AD1E5A
(1705638802.837322) vcan0 613#F5A6CD0C9377AB0A
(1705638803.037706) vcan0 761#
(1705638803.238132) vcan0 5D9#31D30755BBD7D811
(1705638803.398887) vcan0 705#A83A0C0577377161
(1705638803.438633) vcan0 0C5#1508D306
(1705638803.599033) vcan0 705#9C9E1B605A0A053A
(1705638803.638786) vcan0 528#66D5B1
(1705638803.799467) vcan0 705#B4A60617D14A0420
(1705638803.839177) vcan0 577#ADF48B46E8E2C738
(1705638804.039574) vcan0 42B#DEA4D67D15
(1705638804.240231) vcan0 4FE#
(1705638804.400459) vcan0 705#6A20F204FB98E728
(1705638804.440659) vcan0 6CA#A5
(1705638804.600856) vcan0 705#935CE11886B0063D
(1705638804.640867) vcan0 171#50F5ED3D4AF79D05
(1705638804.801254) vcan0 705#1531552859313858
(1705638804.841291) vcan0 09E#05CF
(1705638805.001668) vcan0 705#75054C0AABA6873F
(1705638805.041690) vcan0 686#88154003AE833C47
(1705638805.202098) vcan0 705#6BD8567DAE649A6D
(1705638805.241915) vcan0 1CE#EEDC0442453FAE5D
(1705638805.442118) vcan0 586#2E227616B1A1BF15
(1705638805.602940) vcan0 705#7F482051F33DC252
(1705638805.642506) vcan0 370#C6A1F35E6E403B71
(1705638805.842922) vcan0 23D#80AB
(1705638806.043338) vcan0 473#3317E300E4
(1705638806.243757) vcan0 3F5#2E8D2F26
(1705638806.404742) vcan0 705#FCB1F31A6EE6EA41
(1705638806.444172) vcan0 506#F6059C53
(1705638806.644594) vcan0 34F#3AA78F201DC58B76
(1705638806.805541) vcan0 705#52933B6417742103
(1705638806.845010) vcan0 66D#62043A54F3EBF561
(1705638807.045438) vcan0 5C3#
(1705638807.245623) vcan0 59D#A1F9264BDA1F9E50
(1705638807.406645) vcan0 705#ED326C7B4D60C061
(1705638807.446049) vcan0 70E#E1A8
(1705638807.646485) vcan0 347#66B9E72B3C
(1705638807.807290) vcan0 705#59E5B601E55D0B00
(1705638807.846894) vcan0 499#CFDBDB01
(1705638808.047090) vcan0 2C8#2BC5CE2017D6
(1705638808.207913) vcan0 705#745B0B4B41E94B25
(1705638808.247499) vcan0 544#349B3962B1
(1705638808.447922) vcan0 08D#A5EF1707504618
(1705638808.648348) vcan0 627#83FF0369C4B32020
(1705638808.848762) vcan0 4B5#9ED3BE70
(1705638809.009344) vcan0 705#3732FC4753AF2D72
(1705638809.048969) vcan0 646#
(1705638809.249353) vcan0 495#CA28FA392E095853
(1705638809.410218) vcan0 705#A716ED489B785464
(1705638809.449838) vcan0 73F#CDAAD31A08F27847
(1705638809.610657) vcan0 705#8D5AD932917FE345
(1705638809.650024) vcan0 660#1FC82633A4E3A13D
(1705638809.850435) vcan0 45D#56E7C362
(1705638810.011643) vcan0 705#E742FF1577737D09
(1705638810.050847) vcan0 2EB#3A130C3012C9F76C
(1705638810.251276) vcan0 445#D77C180DFA00203E
(1705638810.451692) vcan0 3E1#BE2C866C28
(1705638810.612936) vcan0 705#D8D6477AE1797E37
(1705638810.652098) vcan0 4F5#B67B53
(1705638810.852508) vcan0 4AE#
(1705638811.052937) vcan0 11A#F5C51A0B7A
(1705638811.253353) vcan0 57D#1F73133FDA
(1705638811.453770) vcan0 169#C4D6FC4954
(1705638811.654229) vcan0 170#66BD6D0CB5855C74
(1705638811.854665) vcan0 4BB#AF867C329D085460
(1705638812.015577) vcan0 705#07377458B4474850
(1705638812.055095) vcan0 2B3#C5B27308A857F43B
(1705638812.255536) vcan0 770#33612E3E1EB42B51
(1705638812.416372) vcan0 705#E81D875500B5AB61
(1705638812.455969) vcan0 2FB#0C88CD14167C3827
(1705638812.616792) vcan0 705#3621F666D98BF35B
(1705638812.656363) vcan0 171#90
(1705638812.817215) vcan0 705#1680F620A4B2643D
(1705638812.856542) vcan0 416#C96837597FCDCB31
(1705638813.017647) vcan0 705#DACDC367789D2009
(1705638813.056967) vcan0 124#D3C14151940A4815
(1705638813.257197) vcan0 18C#4990A40947265630
(1705638813.418520) vcan0 705#B60DA242DB7D8512
(1705638813.457439) vcan0 177#E42EAA102A44930E
(1705638813.657877) vcan0 266#D39B874AD7F96820
(1705638813.819398) vcan0 705#0704F5142866FE7D
(1705638813.858092) vcan0 024#F5AD947120E3
(1705638814.058507) vcan0 0F1#36
(1705638814.220079) vcan0 705#35B7DD450753CA5A
(1705638814.258926) vcan0 403#5101CB501960
(1705638814.459340) vcan0 176#992D40369AC22E14
(1705638814.659748) vcan0 1A7#2FCD762933D3736A
(1705638814.821377) vcan0 705#4869B2293D123E38
(1705638814.860160) vcan0 6A6#7BF9C91A1E28675C
(1705638815.021813) vcan0 705#0621D53317E00120
(1705638815.060586) vcan0 471#486CFA6AD83E604A
(1705638815.222242) vcan0 705#DD1D4B3B09ABC040
(1705638815.261015) vcan0 209#AF38C96A2D1A7760
(1705638815.422664) vcan0 705#E5D1BB11BFB86203
(1705638815.461437) vcan0 521#4DFD7033
(1705638815.661855) vcan0 4A6#75184B
(1705638815.862291) vcan0 74A#C2007F0DC0B0
(1705638816.023643) vcan0 705#24AD902CC029DC09
(1705638816.062525) vcan0 3E0#5A73486F882D4F43
(1705638816.224054) vcan0 705#EDA33B70F5E0B94F
(1705638816.262954) vcan0 5C8#BB00C32D6E8C7230
(1705638816.463340) vcan0 602#8CB4D90C7312
(1705638816.663743) vcan0 296#4B5177059F
(1705638816.825291) vcan0 705#6D3FCA351EA8EC05
(1705638816.864163) vcan0 0F0#CC460A19122E8E6B
(1705638817.064572) vcan0 09F#25A43C46458D5E2F
(1705638817.226104) vcan0 705#A487CA2301E70C75
(1705638817.264983) vcan0 09D#EE2D6938E7679E4A
(1705638817.426525) vcan0 705#5FC0EF2BE7B8C806
(1705638817.465252) vcan0 661#
(1705638817.665646) vcan0 50C#C987
(1705638817.827550) vcan0 705#3953F81DBD0A0B40
(1705638817.866049) vcan0 48B#42075B058D
(1705638818.027984) vcan0 705#A6955473E1B79B6C
(1705638818.066460) vcan0 2BB#017DB13451A55631
(1705638818.228405) vcan0 705#4275231FCE5BD75C
(1705638818.266881) vcan0 4A4#F0D1E96994055F37
(1705638818.467293) vcan0 047#A633ED22E6C80777
(1705638818.629269) vcan0 705#7A4BA75C4EFE3D45
(1705638818.667702) vcan0 4D7#2B56662674FD8D49
(1705638818.829697) vcan0 705#3581D92ABB3D087B
(1705638818.868128) vcan0 466#5C652C14C76A4F38
(1705638819.030126) vcan0 705#2CC9493188524263
(1705638819.068551) vcan0 2C9#08C505
(1705638819.268972) vcan0 205#A98A
(1705638819.469392) vcan0 557#1E413F7612582935
(1705638819.631396) vcan0 705#2B50842981119779
(1705638819.669806) vcan0 5BB#64FD7F665F2AE024
(1705638819.831827) vcan0 705#D85D5660BB648F17
(1705638819.870277) vcan0 46C#F32F3F5C
(1705638820.070800) vcan0 011#99AD8A06E844CD22
(1705638820.270993) vcan0 365#5D425B6C
(1705638820.471379) vcan0 7DD#923A574BA63A7830
(1705638820.671786) vcan0 5BC#7C4AD75EC22F5109
(1705638820.833665) vcan0 705#15BDE75939E44457
(1705638820.872326) vcan0 46D#5306F605C4
(1705638821.034088) vcan0 705#B2BCFB3466AD8E08
(1705638821.072741) vcan0 711#D6
(1705638821.273144) vcan0 591#2BDF782AFD913F0C
(1705638821.434702) vcan0 705#3735B453F562391F
(1705638821.473484) vcan0 68F#B076C21BA02EAD41
(1705638821.635132) vcan0 705#E19D5F6420B3BD48
(1705638821.673927) vcan0 2B9#89737A641EAE3A6E
(1705638821.835560) vcan0 705#3913E87BF8101429
(1705638821.874328) vcan0 00D#EA7D4201EAAF
(1705638822.035994) vcan0 705#4E937B535C026E21
(1705638822.074743) vcan0 59F#90EA760B5B83C90B
(1705638822.236429) vcan0 705#44CBAA170AB1A73B
(1705638822.274897) vcan0 017#1DB31A1584045F5E
(1705638822.436855) vcan0 705#085FB138F9FD7A47
(1705638822.475385) vcan0 232#
(1705638822.675576) vcan0 0E2#1026C73C73066C3E
(1705638822.837453) vcan0 705#1848FA48A5202326
(1705638822.875715) vcan0 759#7098AB4AE85D3524
(1705638823.076138) vcan0 45A#
(1705638823.238330) vcan0 705#76FDD377CC62F024
(1705638823.276566) vcan0 369#3235
(1705638823.438762) vcan0 705#96DBEE470398A478
(1705638823.476994) vcan0 5F8#600BF8329713906C
(1705638823.677411) vcan0 398#
(1705638823.877820) vcan0 2FD#
(1705638824.040015) vcan0 705#56CDF25B6BDC672C
(1705638824.078299) vcan0 380#72A6582C6204CB3F
(1705638824.278841) vcan0 69C#D50A
(1705638824.479277) vcan0 1BE#DE63003518
(1705638824.641210) vcan0 705#02802B5D20DBFA5A
(1705638824.679674) vcan0 265#2C6D3432CEE50B
(1705638824.841624) vcan0 705#7D5384223823F523
(1705638824.880085) vcan0 079#4441051071A67200
(1705638825.042033) vcan0 705#320B223FBC1CBB52
(1705638825.080496) vcan0 57A#08BA026D
(1705638825.280928) vcan0 295#C2E4822B926D292A
(1705638825.481362) vcan0 30A#C1A2531F8B9E55
(1705638825.681615) vcan0 374#EDA220
(1705638825.843517) vcan0 705#8AF4E37B78283925
(1705638825.881807) vcan0 5B6#055060
(1705638826.082238) vcan0 108#8CCD83
(1705638826.282640) vcan0 44A#3CE99609C3948371
(1705638826.483347) vcan0 516#34
(1705638826.683744) vcan0 725#A3F34129BAB9055E
(1705638826.884180) vcan0 637#4C272F0841
(1705638827.084604) vcan0 55C#CC7F7B52D0404133
(1705638827.246522) vcan0 705#A0E45036F90A9F63
(1705638827.285029) vcan0 341#E08AD65EF728FB27
(1705638827.446954) vcan0 705#2385D163017F644D
(1705638827.485458) vcan0 07D#6B10272D8521
(1705638827.685857) vcan0 6C9#F324B97A1433DB
(1705638827.886260) vcan0 0B0#
(1705638828.048212) vcan0 705#98E33569996D246A
(1705638828.086688) vcan0 0B1#57281072D6AF857A
(1705638828.248837) vcan0 705#8A77B37113BA7A34
(1705638828.287123) vcan0 048#91698B587F3EA31F
(1705638828.487537) vcan0 45F#C11FC956BCD9A752
(1705638828.687951) vcan0 2EB#8C1AE9052C6E6C7B
(1705638828.850060) vcan0 705#F912E72B1A32B96B
(1705638828.888372) vcan0 247#23976723C492D45D
(1705638829.050481) vcan0 705#A9532B7404D97919
(1705638829.088795) vcan0 053#4AB402071C0F8E0C
(1705638829.289213) vcan0 585#30426925359E9C27
(1705638829.451094) vcan0 705#B428B974C8429C33
(1705638829.489469) vcan0 76D#FC9303181E20F823
(1705638829.689814) vcan0 514#F5CF7D
(1705638829.851928) vcan0 705#8C4D5642822CB34A
(1705638829.890281) vcan0 04D#DC430E27ACCC
(1705638830.090666) vcan0 263#68A624684E250160
(1705638830.252802) vcan0 705#2E031639A5879C25
(1705638830.291077) vcan0 32A#7A936D5B72
(1705638830.453236) vcan0 705#55854C31CF3AE063
(1705638830.491476) vcan0 662#3658D15BB5E6C352
(1705638830.653660) vcan0 705#76C3016A5130786B
(1705638830.691886) vcan0 22B#
(1705638830.854082) vcan0 705#953D61404B435F17
(1705638830.892428) vcan0 5BE#E6F5
(1705638831.092852) vcan0 20A#4AED
(1705638831.293279) vcan0 635#7A540B68821EB77F
(1705638831.455371) vcan0 705#B29A4B66BE706E0F
(1705638831.493715) vcan0 6C5#2FEB331528C1
(1705638831.694129) vcan0 3F3#77E6DF5B1EFF0C
(1705638831.894509) vcan0 28C#90
(1705638832.094952) vcan0 48F#A39FF710BA76
(1705638832.295378) vcan0 147#6BCE231605
(1705638832.495877) vcan0 577#30DC
(1705638832.696301) vcan0 634#9F5E280A6A94EC78
(1705638832.857910) vcan0 705#D6198E4A690B7010
(1705638832.896733) vcan0 6B9#ECB2A3787E7D9B1F
(1705638833.097149) vcan0 370#A73E7A1B63473E0E
(1705638833.258526) vcan0 705#81F353290A3E2D54
(1705638833.297567) vcan0 7B3#81464B423F829676
(1705638833.497963) vcan0 70F#2E
(1705638833.698434) vcan0 7D8#59
(1705638833.859746) vcan0 705#773EDF319BF29037
(1705638833.898815) vcan0 046#24601E48
(1705638834.060173) vcan0 705#2E45AC39C919F601
(1705638834.099217) vcan0 516#3E4D9854
(1705638834.260597) vcan0 705#015C6275D084FA30
(1705638834.299627) vcan0 5CF#B52F5A66888CE851
(1705638834.500023) vcan0 6F7#07
(1705638834.661409) vcan0 705#BFD3E71B6339BA4C
(1705638834.700440) vcan0 0BD#CAF17F6070B00578
(1705638834.900619) vcan0 5CC#AF329C6EDB0C0033
(1705638835.062399) vcan0 705#3B2A9D14636D7C44
(1705638835.101038) vcan0 35D#7A50CA17356B5019
(1705638835.301461) vcan0 0AF#54BC2F
(1705638835.463153) vcan0 705#F5397C5661EB0E63
(1705638835.501636) vcan0 397#B3F6434AAEE06151
(1705638835.663565) vcan0 705#95D63454A34FD457
(1705638835.702063) vcan0 0CD#F9
(1705638835.863997) vcan0 705#0E7A214E1A8EB309
(1705638835.902490) vcan0 7CF#24EB9704C64E914E
(1705638836.102950) vcan0 64F#2DF9D2200C0FFD70
(1705638836.264672) vcan0 705#A5EBB93A4A2FC238
(1705638836.303388) vcan0 5D9#7CBF0269A5AB72
(1705638836.464831) vcan0 705#66EA9B23C229770F
(1705638836.503812) vcan0 343#81B8723AA1663E3B
(1705638836.704205) vcan0 009#D6D18E54B8A82D64
(1705638836.904614) vcan0 3CE#AE61610365A7E756
(1705638837.066039) vcan0 705#D2ACF64015058F0C
(1705638837.105027) vcan0 2A3#13
(1705638837.305456) vcan0 452#0C620344218C1E6A
(1705638837.505879) vcan0 7BA#E7
(1705638837.706253) vcan0 25C#164D6701
(1705638837.867569) vcan0 705#E38D4B75C29D936D
(1705638837.906445) vcan0 70C#DB2B44
(1705638838.106834) vcan0 6BF#F048323AC85E0E3D
(1705638838.268512) vcan0 705#B367970054FBE52E
(1705638838.307236) vcan0 557#81073C2125014C
(1705638838.468935) vcan0 705#50E63278BAE58152
(1705638838.507635) vcan0 0F2#8BA8330195538C24
(1705638838.669355) vcan0 705#B252E7683ED90C45
(1705638838.708045) vcan0 190#0657E035E25DC45E
(1705638838.869783) vcan0 705#77F85526B5A39556
(1705638838.908456) vcan0 4AB#04EA
(1705638839.108870) vcan0 643#6F22432DA0483601
(1705638839.270683) vcan0 705#D75740144D32506F
(1705638839.309285) vcan0 100#D6C807430C58
(1705638839.509704) vcan0 419#5B
(1705638839.710265) vcan0 10E#A0D92B1865C6F665
(1705638839.910519) vcan0 613#8B
(1705638840.072230) vcan0 705#7364D81255238249
(1705638840.110997) vcan0 250#9A9ADE11E00B
(1705638840.272423) vcan0 705#21C8D221088B194A
(1705638840.311433) vcan0 0B4#
(1705638840.472755) vcan0 705#195B8F6959714C42
(1705638840.511859) vcan0 2B3#C5B96268F6B021
(1705638840.712266) vcan0 0B2#96F95705
(1705638840.912677) vcan0 3BA#BE09830AD3C7645D
(1705638841.073928) vcan0 705#2767DA3DF9AD964C
(1705638841.113108) vcan0 71E#AB4282382C90AE64
(1705638841.313527) vcan0 766#9156A54A7965462C
(1705638841.513942) vcan0 56D#7EAC9819BE471B68
(1705638841.674709) vcan0 705#1BA9D407B1F67101
(1705638841.714110) vcan0 632#9E536338E72E5227
(1705638841.875107) vcan0 705#43C7586EC0CAAF48
(1705638841.914427) vcan0 0B9#46
(1705638842.114834) vcan0 128#6294FA38DB29E158
(1705638842.275680) vcan0 705#C64EB40A55F75A7D
(1705638842.314990) vcan0 240#8DDB782DFAE53435
(1705638842.515374) vcan0 065#CEAD991283075E5B
(1705638842.676542) vcan0 705#5AC2894B426AAD27
(1705638842.715562) vcan0 166#AF970C40CCF0D125
(1705638842.876964) vcan0 705#3F48425A533C036B
(1705638842.915963) vcan0 4C5#45
(1705638843.077354) vcan0 705#DA71903F7AA3DD28
(1705638843.116358) vcan0 45D#F151FB
(1705638843.316762) vcan0 1DB#77C94A7994825E0A
(1705638843.517153) vcan0 2F1#0066373F19742D0D
(1705638843.717564) vcan0 3C9#F49D0E
(1705638843.917967) vcan0 05C#030C
(1705638844.118383) vcan0 6CE#45
(1705638844.279570) vcan0 705#3A6BD458C695E071
(1705638844.318804) vcan0 24B#0079B368
(1705638844.480017) vcan0 705#0F2A753479ABBE73
(1705638844.519218) vcan0 635#43C1DE0C93
(1705638844.680420) vcan0 705#3D5A6252D36D483F
(1705638844.719784) vcan0 208#230DE61A
(1705638844.880834) vcan0 705#764E831B13B68A19
(1705638844.920193) vcan0 0C4#789E0348B51B070F
(1705638845.120618) vcan0 457#CE8F341C2030BD47
(1705638845.281441) vcan0 705#E85D6F1DEB138615
(1705638845.321054) vcan0 6DB#295607
(1705638845.481862) vcan0 705#6EC2876558AC1B3E
(1705638845.521482) vcan0 745#F95F287313064E61
(1705638845.682284) vcan0 705#E24BBB294578EA04
(1705638845.721890) vcan0 3FE#478E2F2449C6D338
(1705638845.882688) vcan0 705#07CC606F3B9F3204
(1705638845.922314) vcan0 032#5A7DD21F681EB2
(1705638846.122560) vcan0 68C#FB909F1094A82B6E
(1705638846.322992) vcan0 1D2#77C4D02B960AC428
(1705638846.483967) vcan0 705#7202CC4EF16BC958
(1705638846.523406) vcan0 4B8#4B26CB370F190E40
(1705638846.723805) vcan0 768#3049CB0743667C7A
(1705638846.924222) vcan0 3DC#7BED6D30218B0D6C
(1705638847.085339) vcan0 705#DE5E9273D813DD7C
(1705638847.124631) vcan0 186#34915B4D
(1705638847.325044) vcan0 5B2#CEE3CB1BE445B213
(1705638847.525459) vcan0 6C2#4C64645B4EFD1C46
(1705638847.686527) vcan0 705#AF25CB1A11808F29
(1705638847.725652) vcan0 7C6#E2A5483498F1DA
(1705638847.886965) vcan0 705#6D283977184CF018
(1705638847.926075) vcan0 365#2EFC9E581D084057
(1705638848.087403) vcan0 705#FFEE62780463A616
(1705638848.126512) vcan0 549#2D214E17B134FD4E
(1705638848.326915) vcan0 092#F59A79496FBCAC3A
(1705638848.527332) vcan0 1B6#
(1705638848.727757) vcan0 5E4#C2283D7F96
(1705638848.928173) vcan0 040#
(1705638849.089537) vcan0 705#191EEB3C13104670
(1705638849.128596) vcan0 5B9#511C2C2A7F0DF7
(1705638849.329010) vcan0 30E#17FFD16E
(1705638849.529430) vcan0 48E#919EB516D7
(1705638849.729861) vcan0 5BE#892E796150F6443C
(1705638849.930300) vcan0 21B#BFB2F176D2330974
(1705638850.091655) vcan0 705#D207D05A7AD9B06C
(1705638850.130726) vcan0 1EE#
(1705638850.292087) vcan0 705#E450F2020BD6694D
(1705638850.331156) vcan0 315#68
(1705638850.531534) vcan0 461#58EA
(1705638850.731934) vcan0 2A9#99EF3240B8458153
(1705638850.893373) vcan0 705#D38F144511106127
(1705638850.932343) vcan0 0DE#
(1705638851.093908) vcan0 705#8C612F5C2B2E4C64
(1705638851.132757) vcan0 1F5#43EF1C35B307514E
(1705638851.332927) vcan0 27C#04FE950A9764CD24
(1705638851.494782) vcan0 705#709E6B1E3B4E5373
(1705638851.533343) vcan0 74A#6998D6
(1705638851.695215) vcan0 705#F129844C75101119
(1705638851.733601) vcan0 313#0A61BB28287EF530
(1705638851.895647) vcan0 705#83352C24DDA53E17
(1705638851.934024) vcan0 749#7E49
(1705638852.134246) vcan0 155#C5958064FE63
(1705638852.334679) vcan0 280#B6A9A8265E037B6D
(1705638852.496953) vcan0 705#91F67B216CDA6944
(1705638852.535105) vcan0 40F#CAF8
(1705638852.735541) vcan0 0A0#B8657F181C3BFC3A
(1705638852.935974) vcan0 5DA#B39FC95F25ED571D
(1705638853.136379) vcan0 480#5D26BB0393BFD043
(1705638853.298656) vcan0 705#2C340213A8E57D4A
(1705638853.336819) vcan0 795#BC3DC674DF4E755A
(1705638853.499082) vcan0 705#4AD4F8291884E968
(1705638853.537252) vcan0 3DA#8A02BA3D2F95ED0B
(1705638853.737659) vcan0 310#2EF9145F91F5502A
(1705638853.899950) vcan0 705#510F8E198CE39959
(1705638853.938077) vcan0 5AE#EFF8CB17
(1705638854.138495) vcan0 0C7#C3EFD4646729A922
(1705638854.338671) vcan0 1C8#8364A55DA2DFEF48
(1705638854.501252) vcan0 705#6353420025AFDD2B
(1705638854.538930) vcan0 138#C7CC4766B8CD
(1705638854.739396) vcan0 453#4B8DD708E9
(1705638854.902275) vcan0 705#16D5AE6BA4484650
(1705638854.939805) vcan0 28D#C89A493267EED4
(1705638855.102714) vcan0 705#595865518E59DB39
(1705638855.140216) vcan0 241#9783
(1705638855.340636) vcan0 5A1#E302F66550
(1705638855.503563) vcan0 705#1FA285060462D676
(1705638855.541053) vcan0 7A9#0EE5
(1705638855.741460) vcan0 58C#D7
(1705638855.941875) vcan0 24C#F7A6BA5B84E36576
(1705638856.104856) vcan0 705#A11C396B737ACE37
(1705638856.142301) vcan0 291#3CB16C3BE416BF1E
(1705638856.342735) vcan0 6E3#CD62937670E17E42
(1705638856.505518) vcan0 705#60B0D861AE889513
(1705638856.543152) vcan0 18F#D8CF533DD1
(1705638856.705729) vcan0 705#F5D3121C92EAEE40
(1705638856.743686) vcan0 2E7#2369431889D01E2B
(1705638856.944098) vcan0 034#D9234B04DDEF
(1705638857.106402) vcan0 705#71B2D3000118037E
(1705638857.144516) vcan0 7D8#4E3875406555A5
(1705638857.306813) vcan0 705#B85E9E4CC8216B19
(1705638857.344945) vcan0 5B8#B91C703404
(1705638857.545371) vcan0 080#
(1705638857.707674) vcan0 705#AE0619629B4CE704
(1705638857.745795) vcan0 76F#F571C04052
(1705638857.946357) vcan0 34D#C37FB1
(1705638858.108522) vcan0 705#5A72F224F8E8984C
(1705638858.146779) vcan0 258#AE40593B406D1179
(1705638858.347121) vcan0 30A#C9
(1705638858.509381) vcan0 705#985B84288F007A1A
(1705638858.547303) vcan0 5D7#1B63
(1705638858.709813) vcan0 705#A7DB5B5B84D48C36
(1705638858.747684) vcan0 289#14D3766F41485F71
(1705638858.910264) vcan0 705#9DA60B2E3879EC45
(1705638858.948115) vcan0 58F#455021180FC66309
(1705638859.148520) vcan0 37E#2021652BEDEA3E06
(1705638859.348934) vcan0 094#40897104E1
(1705638859.511530) vcan0 705#442282570A7B4576
(1705638859.549351) vcan0 7D8#BE9871
(1705638859.749774) vcan0 09E#71A7BB7CA8FB4305
(1705638859.949986) vcan0 33D#E66E4D7114993D6A
(1705638860.112627) vcan0 705#AEA0CE20D1BE0914
(1705638860.150212) vcan0 6DC#C4
(1705638860.350653) vcan0 56B#A6F95F5BFAB2ED04
(1705638860.551080) vcan0 1A6#0979510E258D7E7F
(1705638860.713702) vcan0 705#B7F80C4DC0807439
(1705638860.751481) vcan0 5BA#1278BD054E5EA836
(1705638860.951916) vcan0 53E#2F12
(1705638861.114334) vcan0 705#FAA15B1596E18138
(1705638861.152327) vcan0 255#48CFFF4CF3627A12
(1705638861.352755) vcan0 45A#9B5EBE1798070348
(1705638861.515164) vcan0 705#B05CB91F3B2BD73D
(1705638861.553162) vcan0 3F3#AC
(1705638861.753330) vcan0 783#
(1705638861.915739) vcan0 705#9A0D4B0847F97A68
(1705638861.953755) vcan0 149#E8BFAE35EF7A425D
(1705638862.153894) vcan0 7C5#14
(1705638862.354370) vcan0 31A#CD7B634C580093
(1705638862.554800) vcan0 179#6F95E86CCF8BFF3B
(1705638862.717501) vcan0 705#D395435A1B6E491D
(1705638862.755228) vcan0 0EB#C2EE794E45BD2E
(1705638862.917932) vcan0 705#26EFA0089FDB2E78
(1705638862.955432) vcan0 370#DDC4311063374B6E
(1705638863.118368) vcan0 705#B2C1EA7C997D8A0D
(1705638863.155596) vcan0 2DF#32DA592262BA296B
(1705638863.355982) vcan0 4FA#50C7EA1B43BE
(1705638863.519019) vcan0 705#7F485D06BBC8187B
(1705638863.556376) vcan0 440#3339DA1B0614C926
(1705638863.756781) vcan0 029#8531843C439350
(1705638863.919876) vcan0 705#7CD117682D65F214
(1705638863.957182) vcan0 16E#9C93E3
(1705638864.157590) vcan0 350#B7CEC6033B743D4F
(1705638864.320749) vcan0 705#F0336914A54A767A
(1705638864.358001) vcan0 5C3#80316C1733695861
(1705638864.558415) vcan0 2D7#97A0A34FB725BD27
(1705638864.758641) vcan0 3E8#19E0E612E278D216
(1705638864.921891) vcan0 705#508D540BA4E0CD3F
(1705638864.959056) vcan0 130#26376A5570253F6C
(1705638865.122314) vcan0 705#ACB4236056A2B83C
(1705638865.159443) vcan0 6A2#76390813CCEE0416
(1705638865.322716) vcan0 705#9EBD746D3D62AD74
(1705638865.359833) vcan0 1A0#0F8255290F73F944
(1705638865.560213) vcan0 04F#F7B5C00C9F531E0F
(1705638865.723567) vcan0 705#AB0C9812DEF61546
(1705638865.760635) vcan0 6B7#DAC75B5E7ACCB961
(1705638865.961030) vcan0 227#AD351243FF4C411B
(1705638866.124554) vcan0 705#0CD5CA49A86B6922
(1705638866.161454) vcan0 7B8#B672FE42
(1705638866.324994) vcan0 705#D64FEB22989FD236
(1705638866.361998) vcan0 10E#83C4481E3EFA1937
(1705638866.562423) vcan0 239#AE1F5923DC282205
(1705638866.725859) vcan0 705#9AC89A45FF3A033F
(1705638866.762848) vcan0 402#A817271BA2
(1705638866.926297) vcan0 705#C92D5A5C4FC8574A
(1705638866.963270) vcan0 421#B190D01370DC61
(1705638867.163507) vcan0 763#0F30806D1AEEBA28
(1705638867.363922) vcan0 356#94BA740A7E0DE113
(1705638867.564335) vcan0 143#7D
(1705638867.764745) vcan0 686#9C2C80
(1705638867.928567) vcan0 705#60952272030B9705
(1705638867.965159) vcan0 002#D2110A1C3C1ABD4C
(1705638868.129006) vcan0 705#4E45AD060FE0614F
(1705638868.165574) vcan0 4C8#
(1705638868.365994) vcan0 2A5#
(1705638868.529860) vcan0 705#926BEC146C01723E
(1705638868.566420) vcan0 477#362B145ADAA33856
(1705638868.766836) vcan0 5C7#F491F37E1D
(1705638868.967254) vcan0 32E#9B26A62572441455
(1705638869.167654) vcan0 4CA#6E251E3450032C37
(1705638869.368082) vcan0 64B#E41A1C1C4E6EEF0E
(1705638869.531562) vcan0 705#F6DE7C05DAEA0953
(1705638869.568479) vcan0 32A#8A88AC5BF22F
(1705638869.731994) vcan0 705#86742C0A7A359445
(1705638869.768909) vcan0 636#BD88
(1705638869.969325) vcan0 662#A2370069D91A154C
(1705638870.132856) vcan0 705#BF55E54D2910643E
(1705638870.169758) vcan0 648#B4BE4D220F546842
(1705638870.370239) vcan0 61E#2D6D2D544D11191E
(1705638870.533719) vcan0 705#3A76713BD92EE263
(1705638870.570665) vcan0 531#BF552D73FBD99801
(1705638870.733961) vcan0 705#F1839E2E89AE125A
(1705638870.771087) vcan0 4E1#4BDDC4382C638515
(1705638870.934399) vcan0 705#A7CCCE60D633B468
(1705638870.971500) vcan0 537#7AD1742461105161
(1705638871.134823) vcan0 705#ACDD565D629F944F
(1705638871.171727) vcan0 4E5#54403479
(1705638871.372116) vcan0 5A6#F7
(1705638871.535515) vcan0 705#45344E437B72E950
(1705638871.572514) vcan0 03B#E266541483CEE771
(1705638871.735942) vcan0 705#FE064D7B01E7155B
(1705638871.772927) vcan0 673#9322503491C4
(1705638871.973345) vcan0 63E#
(1705638872.136558) vcan0 705#0BE52708B63DED7D
(1705638872.173521) vcan0 388#6AED25046938ED50
(1705638872.336985) vcan0 705#A2B9C220E6532F67
(1705638872.373931) vcan0 6CA#969B726602
(1705638872.574347) vcan0 2E4#
(1705638872.737730) vcan0 705#08C40475124E3F51
(1705638872.774771) vcan0 715#E56A6323BBECB5
(1705638872.975144) vcan0 5C8#C438F5000356537C
(1705638873.138426) vcan0 705#B75B397066F8640F
(1705638873.175332) vcan0 276#87243B6EE980
(1705638873.338816) vcan0 705#DF89B6691364BF13
(1705638873.375751) vcan0 53C#7B45AF367A3BCF23
(1705638873.576162) vcan0 6DA#EA4E5C2662FA592D
(1705638873.739653) vcan0 705#D8F79B56579F5A52
(1705638873.776595) vcan0 6F7#CC32477E
(1705638873.940072) vcan0 705#BDD9273CDA8F4911
(1705638873.976971) vcan0 70A#C361
(1705638874.177406) vcan0 372#B8B10B188702AA
(1705638874.340937) vcan0 705#65431135872E343A
(1705638874.377844) vcan0 2DE#43EF5F33A738B829
(1705638874.578276) vcan0 379#AA8E0B26F06DD1
(1705638874.778706) vcan0 7AD#D9
(1705638874.979129) vcan0 24B#63C85939
(1705638875.142787) vcan0 705#996103285FA0880D
(1705638875.179543) vcan0 7AE#88CB340FA5963E3A
(1705638875.379832) vcan0 3A2#6684B252
(1705638875.580227) vcan0 4B6#9A24DE6A2808D761
(1705638875.744049) vcan0 705#7F8D5472856D7F04
(1705638875.780613) vcan0 451#B00A
(1705638875.981020) vcan0 2EF#D6AF7A
(1705638876.181427) vcan0 1FA#59
(1705638876.381832) vcan0 1B2#9076
(1705638876.545795) vcan0 705#E98B8E46B9D4D02E
(1705638876.582288) vcan0 787#23BD79
(1705638876.782832) vcan0 641#DA5D8B61E3A9A746
(1705638876.983265) vcan0 6FF#
(1705638877.146675) vcan0 705#4B673D0B2279BE1B
(1705638877.183693) vcan0 06A#DE5B3779BB94AD10
(1705638877.347071) vcan0 705#FF29FB6D870B9C64
(1705638877.384117) vcan0 77C#EB0B701C6BF26D64
(1705638877.547486) vcan0 705#C65078643B62C019
(1705638877.584525) vcan0 081#D4
(1705638877.784961) vcan0 242#226CA437F5EB3D1D
(1705638877.948318) vcan0 705#5C6EE851079BAF16
(1705638877.985392) vcan0 060#F3D7
(1705638878.148741) vcan0 705#AC5C1703164C9869
(1705638878.185639) vcan0 1A5#1CAFB42DE677
(1705638878.349159) vcan0 705#E2BFB74D9F40BC02
(1705638878.386070) vcan0 5C2#C921D43AC1A4
(1705638878.549583) vcan0 705#9F518C5288CC4A49
(1705638878.586493) vcan0 736#77F88F20A1B7F905
(1705638878.786924) vcan0 782#5C4CA716FE
(1705638878.950453) vcan0 705#16FFD602F056C917
(1705638878.987359) vcan0 2E3#6941CF20641B19
(1705638879.150893) vcan0 705#D172BD653BBE0623
(1705638879.187781) vcan0 409#DF9DE87E4B0E7332
(1705638879.351319) vcan0 705#EB862C563AE80111
(1705638879.388015) vcan0 76B#40
(1705638879.588621) vcan0 4B3#B29F15
(1705638879.752193) vcan0 705#48796C53E5487D27
(1705638879.789025) vcan0 74A#3F867A3D0C85E943
(1705638879.952607) vcan0 705#D19A7D6D41B76579
(1705638879.989439) vcan0 3C4#CD29194DFB4A8840
(1705638880.153024) vcan0 705#9D033648EE137D7C
(1705638880.189856) vcan0 661#9C028246
(1705638880.390024) vcan0 699#E16C1D3E7C31F076
(1705638880.590437) vcan0 740#E04C094C49BB4215
(1705638880.754464) vcan0 705#3C9EAB7372F5005A
(1705638880.790625) vcan0 088#94C9B547F40FCE4A
(1705638880.990793) vcan0 4C0#BFC77B0473
(1705638881.191235) vcan0 608#CCEF
(1705638881.355536) vcan0 705#AF71122645EEC118
(1705638881.391636) vcan0 640#5E82C24E0512662F
(1705638881.592046) vcan0 613#005DEE6F74EC967D
(1705638881.792480) vcan0 670#570A537F0A45F510
(1705638881.956819) vcan0 705#B7251B71A2C78617
(1705638881.992916) vcan0 694#8676E507D455DA23
(1705638882.156968) vcan0 705#A71271313FCBBC5F
(1705638882.193336) vcan0 583#1D111D390BEE90
(1705638882.357457) vcan0 705#AD4B5F5B6605BD1C
(1705638882.393772) vcan0 626#FFFD
(1705638882.557871) vcan0 705#52C509083B87AA1D
(1705638882.594267) vcan0 687#5A846F338F342E43
(1705638882.758302) vcan0 705#800BFF7D78255611
(1705638882.794693) vcan0 531#E231074E71E3
(1705638882.958619) vcan0 705#A10BD9537427BD14
(1705638882.995125) vcan0 231#
(1705638883.195546) vcan0 06C#B9F46339DD2E
(1705638883.359247) vcan0 705#FD7726526816AD41
(1705638883.395974) vcan0 212#E7
(1705638883.596201) vcan0 649#7BB60063CC9B8412
(1705638883.760201) vcan0 705#08ACF80AD85B0533
(1705638883.796652) vcan0 5D4#D8891522FB5BD44D
(1705638883.960620) vcan0 705#732B9C4990812024
(1705638883.997069) vcan0 24B#E2FE336ED2402A
(1705638884.197459) vcan0 596#61755878C77ABB7E
(1705638884.361235) vcan0 705#BAAC2B36E4DFF030
(1705638884.397870) vcan0 763#395E83
(1705638884.598288) vcan0 384#D9E9E316F0BBCE1B
(1705638884.798709) vcan0 626#CDEAF8
(1705638884.962495) vcan0 705#4948E04558BCD20A
(1705638884.999141) vcan0 5A4#DFB88039
(1705638885.162715) vcan0 705#1D763518091F4F4C
(1705638885.199569) vcan0 122#BAEFAA11F6F6103B
(1705638885.399985) vcan0 6F4#F152
(1705638885.563308) vcan0 705#BF8ECC5A890C4812
(1705638885.600409) vcan0 169#111ABA
(1705638885.800852) vcan0 510#C7C9
(1705638886.001243) vcan0 6B6#
(1705638886.201785) vcan0 3B0#2A
(1705638886.402240) vcan0 674#0E7A9C0118546F15
(1705638886.565195) vcan0 705#BE472A3B02BE9453
(1705638886.602668) vcan0 7AC#05A89514CEE09863
(1705638886.803092) vcan0 249#C5D7A91E3DD93D10
(1705638886.966027) vcan0 705#D9737B0C4915D869
(1705638887.003511) vcan0 151#7CB2CD65BB12
(1705638887.203937) vcan0 48A#BB61BA159A516537
(1705638887.367021) vcan0 705#0DB93734B2962D2F
(1705638887.404355) vcan0 3FF#0D1E
(1705638887.604578) vcan0 383#EF24A869
(1705638887.767879) vcan0 705#D25779662DEB0F69
(1705638887.804978) vcan0 3F5#09F1733E69DA706F
(1705638887.968319) vcan0 705#12C76768B6147876
(1705638888.005385) vcan0 412#812EE004BE43F1
(1705638888.168739) vcan0 705#E2B7760EAF69B949
(1705638888.205799) vcan0 605#8D248A134E40CC
(1705638888.406269) vcan0 646#8B19
(1705638888.569593) vcan0 705#D4A1A83616FDBA7D
(1705638888.606679) vcan0 708#5392ED2392A36B
(1705638888.806879) vcan0 094#2CF5D02F94F4F92C
(1705638889.007412) vcan0 790#4987066A13735F58
(1705638889.170496) vcan0 705#FFDD12601680EA37
(1705638889.207840) vcan0 74E#4642910F43433C3B
(1705638889.408244) vcan0 753#AD1DAD2A65CB365E
(1705638889.608659) vcan0 667#230F280E6C3C4309
(1705638889.809094) vcan0 2B5#
(1705638890.009273) vcan0 002#941071220B57
(1705638890.172511) vcan0 705#FCA3657456540A61
(1705638890.209695) vcan0 24E#9DFA1426E2FA50
(1705638890.372933) vcan0 705#7EC06A053F91216B
(1705638890.410021) vcan0 6F5#76EF4A6E85B6A859
(1705638890.573362) vcan0 705#DDCF1D351433CA21
(1705638890.610439) vcan0 303#
(1705638890.810860) vcan0 2F9#9525C21A4C42C131
(1705638890.974275) vcan0 705#A037A55FD845B976
(1705638891.011295) vcan0 72F#B10D
(1705638891.174526) vcan0 705#4BE7BC70D723CC56
(1705638891.211690) vcan0 770#027AF726
(1705638891.412093) vcan0 085#2243B9468780B813
(1705638891.612521) vcan0 504#92D7614152EF
(1705638891.812979) vcan0 69D#
(1705638892.013372) vcan0 1FA#17443809FDC4A644
(1705638892.176102) vcan0 705#D4C4B3736686E35A
(1705638892.213788) vcan0 06B#
(1705638892.376544) vcan0 705#9C254269E4464E60
(1705638892.414260) vcan0 190#B0B5C02F
(1705638892.576975) vcan0 705#BB3B6121C2166C15
(1705638892.614673) vcan0 026#55
(1705638892.815084) vcan0 035#BC515A37BA30AB
(1705638892.977832) vcan0 705#4C2AF825A1EB762D
(1705638893.015508) vcan0 715#42B1633119B44B16
(1705638893.215923) vcan0 094#6BA35D60
(1705638893.378513) vcan0 705#19D918464AF51522
(1705638893.416333) vcan0 304#C36C5646FE1C9917
(1705638893.578945) vcan0 705#AEA9405E6CE94A68
(1705638893.616755) vcan0 74A#FCE13F5CB5B76D37
(1705638893.817286) vcan0 68B#192B6D351BF8A807
(1705638894.017722) vcan0 62F#DA7021145566B943
(1705638894.180060) vcan0 705#4EDBBA5853675F36
(1705638894.218156) vcan0 42A#EB05143D6084BF02
(1705638894.418662) vcan0 787#1AB56A209C7E9D63
(1705638894.580878) vcan0 705#29952437ABC80241
(1705638894.619084) vcan0 486#B532E9791BD5BF59
(1705638894.781296) vcan0 705#CB6DB47D9C173E18
(1705638894.819511) vcan0 731#
(1705638894.981720) vcan0 705#76254302E841363E
(1705638895.019942) vcan0 3BF#
(1705638895.182151) vcan0 705#FA228B7D90834958
(1705638895.220133) vcan0 1EB#
(1705638895.382649) vcan0 705#56449F4FA95C621E
(1705638895.420558) vcan0 27B#92E8E318AA287152
(1705638895.620786) vcan0 6A2#FF8E2A16CD326522
(1705638895.821193) vcan0 09C#2DB7242523D8C57A
(1705638896.021600) vcan0 492#BF56635E19D92E
(1705638896.221993) vcan0 2A4#34AEEE13
(1705638896.384586) vcan0 705#3C53CE7768E4F861
(1705638896.422208) vcan0 794#
(1705638896.585021) vcan0 705#B50A124192791D19
(1705638896.622413) vcan0 390#5D8E10247B55BE41
(1705638896.822816) vcan0 46E#F245F952E98EEA56
(1705638896.985896) vcan0 705#2B5B434CD30C1519
(1705638897.023238) vcan0 6F6#93B75B29
(1705638897.223418) vcan0 7F0#6580
(1705638897.423823) vcan0 37D#AFE0
(1705638897.624220) vcan0 3DA#28A1A0147E763A41
(1705638897.824647) vcan0 0E2#53382C1D76203F68
(1705638898.024806) vcan0 1DD#CAE3D9606D355768
(1705638898.188219) vcan0 705#72EA9678C13D4C1B
(1705638898.225218) vcan0 79C#E98A152A0A74EE
(1705638898.388642) vcan0 705#8AE8FB6EFE901A13
(1705638898.425662) vcan0 344#F402D9633A42232B
(1705638898.626091) vcan0 75F#D38FE6474F87CE
(1705638898.826516) vcan0 11A#DC8F040697DC7F5F
(1705638899.026939) vcan0 7CB#A6A4F139A5EB3815
(1705638899.227315) vcan0 7FA#23627356DC680B18
(1705638899.427729) vcan0 52B#53894A000847
(1705638899.590958) vcan0 705#049EC1228EE27F3D
(1705638899.628149) vcan0 6D3#767C7D0C6F96A754
(1705638899.791374) vcan0 705#CB318E43F541B778
(1705638899.828312) vcan0 744#7A0A96618962ED71
(1705638899.991808) vcan0 705#BBC3185BA2954831
(1705638900.028477) vcan0 03A#C3A4101D99D78D1C
(1705638900.228898) vcan0 7F5#E85E5C1E0FC9
(1705638900.429067) vcan0 4CF#A6A5DE7E
(1705638900.629362) vcan0 750#3F789B6C4A07C10B
(1705638900.829773) vcan0 01C#2670
(1705638900.993663) vcan0 705#D07788500BD63C45
(1705638901.030061) vcan0 4D8#506CAA22AB533C42
(1705638901.230523) vcan0 696#1BEAE316DB45
(1705638901.394548) vcan0 705#6A8C2A796BC6A53C
(1705638901.430724) vcan0 025#64A8375D5F
(1705638901.631138) vcan0 203#F89FEA35F8C98C
(1705638901.831548) vcan0 1BE#
(1705638901.995988) vcan0 705#DC956B7BF6590E7E
(1705638902.031708) vcan0 5A5#2753A822F54C0922
(1705638902.196403) vcan0 705#D15BE54B20C99067
(1705638902.232130) vcan0 2FB#3F54CA2D1713
(1705638902.396684) vcan0 705#885FAB3785D8162F
(1705638902.432695) vcan0 5C8#5F38816DA0
(1705638902.597156) vcan0 705#3CF48B368D6C9936
(1705638902.633083) vcan0 5DF#4B6E3D4B7524E97A
(1705638902.797544) vcan0 705#A4249909CBFE3517
(1705638902.833494) vcan0 575#506A33669A7D
(1705638903.033923) vcan0 4FB#F9456B3E
(1705638903.234097) vcan0 7DC#F7
(1705638903.398879) vcan0 705#324C5D453D6D723A
(1705638903.434602) vcan0 4D1#27A8386876D24441
(1705638903.635016) vcan0 4AD#6B1F4E63A967616F
(1705638903.835446) vcan0 6B4#C07A5E5E7C6C776C
(1705638904.000164) vcan0 705#41646610DC504E6C
(1705638904.035604) vcan0 010#1C877875EFF55C58
(1705638904.236106) vcan0 7CE#641A465343E55E
(1705638904.436534) vcan0 5CE#DD626D40C9
(1705638904.601454) vcan0 705#790CD20A72006B26
(1705638904.636963) vcan0 769#C8E9F61545F7
(1705638904.837148) vcan0 6C7#DFD88A579973CB3B
(1705638905.037562) vcan0 6BE#0F46107D6B93
(1705638905.202702) vcan0 705#91B77D734A2D5B58
(1705638905.238066) vcan0 454#14FB2C0F0843C964
(1705638905.438470) vcan0 125#84AF405135
(1705638905.603287) vcan0 705#6F3B9E1F03768655
(1705638905.638665) vcan0 0F4#
(1705638905.803710) vcan0 705#02C568736D05453D
(1705638905.839174) vcan0 408#0666D530D679462A
(1705638906.004114) vcan0 705#D0E4286AAE69AB4D
(1705638906.039315) vcan0 63E#9F14B927
(1705638906.204522) vcan0 705#945EF75E6A380238
(1705638906.239729) vcan0 1BA#ED34BF7082004A
(1705638906.440161) vcan0 126#1B74151FE4AFBC14
(1705638906.605332) vcan0 705#E1BCCC462EFEFA30
(1705638906.640701) vcan0 6D3#50438834270BB252
(1705638906.841099) vcan0 7A5#304E7B37
(1705638907.041534) vcan0 439#000A2142
(1705638907.206641) vcan0 705#F8C825234700A263
(1705638907.241952) vcan0 455#F15D22005D
(1705638907.442147) vcan0 2AE#33DA2A01ECD8AF
(1705638907.642623) vcan0 4DB#9316
(1705638907.843041) vcan0 53A#
(1705638908.043201) vcan0 14D#459E08
(1705638908.243761) vcan0 55D#47F39F7103
(1705638908.408671) vcan0 705#B1DF971EE0FB5A26
(1705638908.444169) vcan0 7F9#CE455A1B33D486
(1705638908.644594) vcan0 72C#61B1320C81734C01
(1705638908.809545) vcan0 705#7E20023C9AFD0376
(1705638908.845017) vcan0 0F3#DED3
(1705638909.045263) vcan0 349#8D
(1705638909.210401) vcan0 705#B09A78602C924B7B
(1705638909.245686) vcan0 4E3#BB
(1705638909.446084) vcan0 6A1#7E781F
(1705638909.646501) vcan0 106#0E1078
(1705638909.846912) vcan0 058#664B6D5A5118
(1705638910.011642) vcan0 705#AD7F7F4D5D5EE31A
(1705638910.047092) vcan0 4CD#84EC8502
(1705638910.211875) vcan0 705#0EC0917617AADA2D
(1705638910.247536) vcan0 103#7AF75612F6
(1705638910.447943) vcan0 537#98D5EE5981805A58
(1705638910.648355) vcan0 169#A6E0E1374D
(1705638910.848783) vcan0 546#6A
(1705638911.049219) vcan0 534#D6BB72303A6E6F0D
(1705638911.249644) vcan0 7AB#9D6C7D3A03
(1705638911.450157) vcan0 73B#5540F610
(1705638911.650452) vcan0 138#0298401B3B2AF55D
(1705638911.815058) vcan0 705#67DC913731A86062
(1705638911.850878) vcan0 2BF#326C577DF677423D
(1705638912.015505) vcan0 705#AF472319DE27E02F
(1705638912.051024) vcan0 2D5#77F89C153ED4025C
(1705638912.215944) vcan0 705#CAAEC106ECE77126
(1705638912.251454) vcan0 3EF#8BEA25223649B00F
(1705638912.451884) vcan0 07E#1EDD981AB2B5
(1705638912.616794) vcan0 705#B22D625E1FC4FB5C
(1705638912.652289) vcan0 3DE#EC23EA15
(1705638912.817229) vcan0 705#D8A3874A27D01774
(1705638912.852699) vcan0 4D9#8DFB673B1434F96A
(1705638913.053128) vcan0 08E#1D48
(1705638913.218267) vcan0 705#8C5400671019201E
(1705638913.253416) vcan0 0BC#02BCF94D7B330F02
(1705638913.418691) vcan0 705#AC239B1CEE9ED204
(1705638913.453840) vcan0 79B#71AB513F
(1705638913.654250) vcan0 1FE#AF9E2932EDED0836
(1705638913.819560) vcan0 705#7F60384C77034934
(1705638913.854658) vcan0 506#2337B9458595AB19
(1705638914.019988) vcan0 705#CC8ED600264B6C4D
(1705638914.054835) vcan0 430#37
(1705638914.220206) vcan0 705#761B5850F0F92D54
(1705638914.255259) vcan0 536#998B0F7D
(1705638914.420591) vcan0 705#3752B44D3E6A9233
(1705638914.455680) vcan0 7AE#24464D563C48
(1705638914.620997) vcan0 705#C0128317F097F411
(1705638914.656086) vcan0 309#02
(1705638914.821404) vcan0 705#EFDCDB47C83B7C5C
(1705638914.856511) vcan0 660#405FBF66
(1705638915.056932) vcan0 638#6C
(1705638915.222319) vcan0 705#F2D5221EECA72D70
(1705638915.257358) vcan0 69A#2416BA4FA12B6D1D
(1705638915.422747) vcan0 705#AB857A3298CBC80C
(1705638915.457781) vcan0 055#26C1183786E4FF
(1705638915.622958) vcan0 705#E25C2363B9F7BB7F
(1705638915.658242) vcan0 189#959C9E0DBF0E2321
(1705638915.823384) vcan0 705#4F3314043858F44B
(1705638915.858556) vcan0 381#CE20770C2F7BC719
(1705638916.058991) vcan0 754#6BC3
(1705638916.259426) vcan0 533#229EAB2C93632D0A
(1705638916.459844) vcan0 372#8F41
(1705638916.660249) vcan0 014#E119F421AEB67B34
(1705638916.860635) vcan0 116#4FE2E8516B
(1705638917.025966) vcan0 705#C44C7D49A515F764
(1705638917.061071) vcan0 54D#F1E51349D6
(1705638917.226398) vcan0 705#1F0F0F2C97EB1903
(1705638917.261514) vcan0 7D3#95ED091E542B
(1705638917.426827) vcan0 705#8AEAC02C42719435
(1705638917.461719) vcan0 2B4#84A657
(1705638917.661910) vcan0 556#66CC816C896A863B
(1705638917.827704) vcan0 705#4D0681347401CC1C
(1705638917.862409) vcan0 75D#1DCEB345D03A730B
(1705638918.062581) vcan0 7EB#7B2CB613FF6F1466
(1705638918.228339) vcan0 705#349BF66ECC0BC95E
(1705638918.262995) vcan0 1A7#AE26901ABD2A9134
(1705638918.463416) vcan0 662#282CA561AFF3792E
(1705638918.663809) vcan0 473#85D2602B465CBB57
(1705638918.864217) vcan0 4A0#9A874B4B553FCC62
(1705638919.029980) vcan0 705#75ED8E6AB3DE2549
(1705638919.064642) vcan0 67D#5E995207D3433101
(1705638919.230210) vcan0 705#C468DE6DD2ED3475
(1705638919.265067) vcan0 00E#5DAEB73C
(1705638919.465499) vcan0 04D#3BDA497339389A39
(1705638919.665916) vcan0 426#38A8AE1FCD85
(1705638919.831198) vcan0 705#6161A3618E43BC08
(1705638919.866086) vcan0 513#8AB0E21E75C3
(1705638920.066479) vcan0 7E4#24B7
(1705638920.266910) vcan0 6CC#9DE0ED736D83AC2C
(1705638920.432491) vcan0 705#35EE3E7C1C0FCE29
(1705638920.467341) vcan0 1C3#C2C2780F401834
(1705638920.632911) vcan0 705#2B6BFA1C7DE8947C
(1705638920.667740) vcan0 656#
(1705638920.833344) vcan0 705#924F104004AE016D
(1705638920.868165) vcan0 1E4#CF
(1705638921.033787) vcan0 705#5B785C2D7A9B9057
(1705638921.068593) vcan0 6EB#6BCA3B511113C927
(1705638921.269024) vcan0 6C1#DE981A
(1705638921.469452) vcan0 18A#49BF36086E19E151
(1705638921.669827) vcan0 61A#C59D136EE714C65C
(1705638921.870263) vcan0 016#5498
(1705638922.070662) vcan0 699#1A620D5BEF7C
(1705638922.236227) vcan0 705#A56EB4288AD2035E
(1705638922.270858) vcan0 736#53AB803E1A79563A
(1705638922.436461) vcan0 705#B498246CBFC0425A
(1705638922.471248) vcan0 09F#4C0BF8
(1705638922.636914) vcan0 705#62B59822EA2B3D77
(1705638922.671649) vcan0 12E#9B62E173EFCFD3
(1705638922.837219) vcan0 705#B15A07387D7B4D37
(1705638922.872059) vcan0 05B#C4CB0718E589473F
(1705638923.037633) vcan0 705#EF911E4DD8F3A964
(1705638923.072490) vcan0 4E1#53A32811FB6A7E68
(1705638923.272915) vcan0 17B#E27F444591018313
(1705638923.473331) vcan0 77A#6B4B5C7313A6
(1705638923.673755) vcan0 34C#0323903B82
(1705638923.873950) vcan0 3B3#9DA3AF515234
(1705638924.039320) vcan0 705#18FE3710673DDA60
(1705638924.074389) vcan0 779#DC838402A7681B32
(1705638924.274814) vcan0 4A1#9738EF25FCCCF9
(1705638924.440176) vcan0 705#631F337FC144B375
(1705638924.475250) vcan0 1F0#E156411AD1265B33
(1705638924.640619) vcan0 705#1D04DB5123FA4B18
(1705638924.675655) vcan0 768#CC91D91B
(1705638924.841070) vcan0 705#55D11721D4545350
(1705638924.876081) vcan0 34C#7592AA2CC6FAE30B
(1705638925.076511) vcan0 1E5#
(1705638925.241935) vcan0 705#48632571A48ECD48
(1705638925.276940) vcan0 365#B4C7D02E18F74C14
(1705638925.442370) vcan0 705#3D7E634A483A9B47
(1705638925.477370) vcan0 233#6A
(1705638925.642803) vcan0 705#71296C4A0EC2D03B
(1705638925.677790) vcan0 23B#5442EA1BDC9E
(1705638925.843241) vcan0 705#B7DFE0523563A979
(1705638925.878084) vcan0 5BD#D86BFD45AD770540
(1705638926.078491) vcan0 746#7E9E6073AE0E065E
(1705638926.244220) vcan0 705#C431924F12AB3A60
(1705638926.278880) vcan0 4ED#929F2D7739F84E36
(1705638926.479288) vcan0 1F9#FFF23242DF6B2D
(1705638926.679679) vcan0 7E7#1109A5374C9B4F32
(1705638926.845275) vcan0 705#C7E4E733E89F6052
(1705638926.880096) vcan0 7B5#64929C46E8
(1705638927.045731) vcan0 705#CC4EE6247AECB62F
(1705638927.080509) vcan0 417#94C3484852561E0B
(1705638927.280940) vcan0 514#2EF52176D1023722
(1705638927.481148) vcan0 0D3#7E7A3C621900
(1705638927.647095) vcan0 705#1249B92771F7AB35
(1705638927.681583) vcan0 3BF#C80EE303ACE00628
(1705638927.847527) vcan0 705#81E4263428D78C08
(1705638927.882013) vcan0 146#E5D8555E408B2F55
(1705638928.082460) vcan0 061#1FF75C75
(1705638928.282885) vcan0 7BC#
(1705638928.483455) vcan0 0F5#59A10E6A0C0D6E7A
(1705638928.649263) vcan0 705#5C5B70043E357E4F
(1705638928.683627) vcan0 3C6#5E638C05DA489D4B
(1705638928.849694) vcan0 705#270C1326061A6603
(1705638928.884040) vcan0 2D6#AB4BD46DAAEB963C
(1705638929.084265) vcan0 192#C3EB736251DD2B54
(1705638929.250616) vcan0 705#29FE70277C15DB22
(1705638929.284679) vcan0 725#FDBD327C6B28850A
(1705638929.485096) vcan0 0E5#ABB3
(1705638929.685509) vcan0 2C6#8E79186383C2296C
(1705638929.885932) vcan0 2FA#F479
(1705638930.052289) vcan0 705#708063502A659D10
(1705638930.086322) vcan0 31A#FC88F90FE0FEED40
(1705638930.286559) vcan0 03C#BA478B0C12EBAE2A
(1705638930.486944) vcan0 4E7#BCD645677A
(1705638930.687343) vcan0 18E#
(1705638930.853654) vcan0 705#A8D4E85D30A4B01D
(1705638930.887737) vcan0 50B#1F61A37AF1657811
(1705638931.088143) vcan0 0AB#37EFC8117293FA6E
(1705638931.254458) vcan0 705#EA009C5220B42A5D
(1705638931.288544) vcan0 795#F555245B8F6A
(1705638931.488952) vcan0 5E8#7FE608470391F540
(1705638931.689365) vcan0 337#E38FE301736BD448
(1705638931.855651) vcan0 705#C1A8FB37AE016177
(1705638931.889779) vcan0 3D7#86568373BEA0BC7D
(1705638932.090353) vcan0 303#389F
(1705638932.256509) vcan0 705#D273013F6F3E5477
(1705638932.290783) vcan0 7C2#45FD5C43
(1705638932.491214) vcan0 4CD#BF120C66
(1705638932.691639) vcan0 32F#EAD83060C432
(1705638932.857870) vcan0 705#25C00D51080BFF51
(1705638932.892062) vcan0 2BC#539D3F79A5D8C759
(1705638933.058300) vcan0 705#1A2C390194FF6552
(1705638933.092491) vcan0 6C9#A869BD
(1705638933.292899) vcan0 34F#7455BC0B264FD303
(1705638933.493324) vcan0 129#E4EF8F012D3CDE33
(1705638933.693512) vcan0 13C#BF001D07FFC88B7E
(1705638933.893947) vcan0 221#CD751F53
(1705638934.094382) vcan0 469#6664BE1A98CFD220
(1705638934.294619) vcan0 282#5C
(1705638934.461204) vcan0 705#700DC4214EF43121
(1705638934.495040) vcan0 430#E4CD7E77F96A7C44
(1705638934.695443) vcan0 382#FA546407D1166839
(1705638934.895844) vcan0 117#F7653B3D4102ED59
(1705638935.061760) vcan0 705#9BD14931C34EC117
(1705638935.096252) vcan0 668#6E3ECB0DA42F696C
(1705638935.261948) vcan0 705#6EBE2F7DA64F7271
(1705638935.296666) vcan0 4F9#A3F8F46A1AEF5433
(1705638935.462352) vcan0 705#605F4026CC3A7646
(1705638935.497079) vcan0 531#
(1705638935.662819) vcan0 705#A32D222CDADA286E
(1705638935.697574) vcan0 6FC#3269AF087F814028
(1705638935.898005) vcan0 7BF#BE76F745F01BCF28
(1705638936.063452) vcan0 705#7883D727016D1566
(1705638936.098392) vcan0 33E#E986
(1705638936.298824) vcan0 42E#92459E
(1705638936.464297) vcan0 705#A81DCB21ECC9EC1B
(1705638936.499256) vcan0 651#86AF7C58B9DC301A
(1705638936.664718) vcan0 705#ABEBB940FFD18E3E
(1705638936.699670) vcan0 165#5E0C9A06
(1705638936.865160) vcan0 705#0EF0BE53BF6CAC59
(1705638936.900041) vcan0 521#78
(1705638937.100476) vcan0 372#
(1705638937.266015) vcan0 705#780E2D70C8FC2508
(1705638937.300887) vcan0 5EF#
(1705638937.501316) vcan0 0AE#9E21E654ECE37B0F
(1705638937.666664) vcan0 705#FD8AB413CC89885A
(1705638937.701725) vcan0 74D#AD12B2047B234422
(1705638937.902142) vcan0 46B#C1D0D320BD0AB23E
(1705638938.067526) vcan0 705#F8BBF005FC64AC30
(1705638938.102642) vcan0 3C8#76E7E2582E05CF
(1705638938.267955) vcan0 705#2ACA923D5496D319
(1705638938.302875) vcan0 63C#8CEB8D7B
(1705638938.468139) vcan0 705#267B654FFCB39E3B
(1705638938.503265) vcan0 0D6#B0055B3548
(1705638938.703671) vcan0 485#B6D6922774FA1E5C
(1705638938.904075) vcan0 6BE#23003608
(1705638939.104238) vcan0 54F#59
(1705638939.269475) vcan0 705#F2CBB830A69D0779
(1705638939.304651) vcan0 249#18F0A700B54E
(1705638939.505059) vcan0 645#7259E1140DA2F365
(1705638939.669850) vcan0 705#8098A42799465559
(1705638939.705484) vcan0 121#3BA7C22F5DAF647A
(1705638939.870037) vcan0 705#08777E745723D342
(1705638939.905906) vcan0 4BD#BA4A2D55932D4D1E
(1705638940.070227) vcan0 705#1399F72850DFC348
(1705638940.106346) vcan0 3CD#DB99FC1E52F8842E
(1705638940.270643) vcan0 705#202886437AA95606
(1705638940.306778) vcan0 209#C7
(1705638940.471046) vcan0 705#A8733D58A124BC55
(1705638940.506945) vcan0 335#3320864485581849
(1705638940.671461) vcan0 705#1C89E10812452658
(1705638940.707365) vcan0 4AB#22257C27F5DE430F
(1705638940.907763) vcan0 192#AA2D7365D737902D
(1705638941.072333) vcan0 705#C2C4F34008C0FF5C
(1705638941.108196) vcan0 614#E5D9831335176C64
(1705638941.308630) vcan0 004#
(1705638941.473190) vcan0 705#A4E6C470CD20AC56
(1705638941.509068) vcan0 3E8#542AA753B567897A
(1705638941.673765) vcan0 705#23D2267B4EB9507E
(1705638941.709491) vcan0 1B7#08600E29C0BBD840
(1705638941.909912) vcan0 4C1#878C1306F6677976
(1705638942.074680) vcan0 705#3C9ED04D69C9C61B
(1705638942.110338) vcan0 5B9#7BC0913F645A8236
(1705638942.275123) vcan0 705#075A3C6C89F14C5F
(1705638942.310762) vcan0 047#5939C645DA99AD04
(1705638942.511062) vcan0 2D8#B1D13D
(1705638942.711456) vcan0 61F#21E83D3D24B6
(1705638942.876415) vcan0 705#04589008DD5E8038
(1705638942.911847) vcan0 4B7#E5B200
(1705638943.076672) vcan0 705#7D8DDE489F237479
(1705638943.112264) vcan0 7FF#55A82872B721930E
(1705638943.312664) vcan0 169#77DD6B4F2AD67E42
(1705638943.477587) vcan0 705#71B437549261027F
(1705638943.513068) vcan0 32C#213EF838E5A07515
(1705638943.677772) vcan0 705#5BD2085CB533297A
(1705638943.713472) vcan0 6BA#49FBF74B0117003E
(1705638943.877962) vcan0 705#DE362F3D237B3A5A
(1705638943.914024) vcan0 43A#DBB0AD
(1705638944.078149) vcan0 705#B8BE286160190B28
(1705638944.114539) vcan0 3A6#FEAF9B47C6898562
(1705638944.314971) vcan0 623#EA3F2C70DA5AB543
(1705638944.515398) vcan0 6D2#7A9B543BD106F570
(1705638944.715823) vcan0 009#8828887F73712053
(1705638944.916235) vcan0 42C#
(1705638945.080073) vcan0 705#CFCDC61E50B78B22
(1705638945.116661) vcan0 7FF#3D48132DB9868C44
(1705638945.280495) vcan0 705#8175CC6F74099334
(1705638945.317091) vcan0 45B#BA9D8C029568
(1705638945.480915) vcan0 705#2EA98A4EE5BDCA08
(1705638945.517521) vcan0 029#A7478315D013
(1705638945.681437) vcan0 705#A8FDF4034090D364
(1705638945.717941) vcan0 123#969D462A46
(1705638945.918374) vcan0 7C4#
(1705638946.118813) vcan0 04F#67DDD57359A07417
(1705638946.319248) vcan0 16A#
(1705638946.483171) vcan0 705#264A294242E20B12
(1705638946.519691) vcan0 3F0#EE2CAC01EF7BC566
(1705638946.683579) vcan0 705#69A8511B104ED61B
(1705638946.720017) vcan0 728#A802522B8363ED15
(1705638946.884019) vcan0 705#F9F4E53436349746
(1705638946.920417) vcan0 0B1#18CC
(1705638947.084453) vcan0 705#66A0FA0605025E65
(1705638947.120825) vcan0 6F8#AB44557A1BC03E2D
(1705638947.284889) vcan0 705#726F835287772A55
(1705638947.321242) vcan0 364#62
(1705638947.485322) vcan0 705#6CB9492CB520B523
(1705638947.521644) vcan0 7C1#BE7122
(1705638947.722053) vcan0 71E#6930232488
(1705638947.922485) vcan0 515#1ECEDF5905
(1705638948.122918) vcan0 39F#F4DC6D24C77AB85D
(1705638948.286318) vcan0 705#6512685A70C41F5E
(1705638948.323250) vcan0 037#4ADEA573E8281632
(1705638948.523444) vcan0 7FF#C359
(1705638948.723873) vcan0 621#132FF61D85C9BF31
(1705638948.924278) vcan0 0AF#AD64014370
(1705638949.087560) vcan0 705#2EDB93265F4C7B77
(1705638949.124718) vcan0 7F8#81D0584F16171969
(1705638949.325139) vcan0 590#9E5FEA58A67A725A
(1705638949.488397) vcan0 705#F857563A3D754876
(1705638949.525557) vcan0 320#ABDB1A18BFDE2011
(1705638949.688798) vcan0 705#FDD84B6735DA5A7B
(1705638949.725983) vcan0 0C8#
(1705638949.889227) vcan0 705#42EA1479701E5F53
(1705638949.926394) vcan0 03C#
(1705638950.089652) vcan0 705#A5C2E02C10BD8F58
(1705638950.126636) vcan0 232#33879E7A53A04215
(1705638950.327064) vcan0 219#D8690247C93A
(1705638950.527455) vcan0 4BB#397BA754B3
(1705638950.691050) vcan0 705#0B17F60553C9075D
(1705638950.727662) vcan0 4F0#C9C3575C80CA4340
(1705638950.891487) vcan0 705#5151E13B26A28F36
(1705638950.928048) vcan0 4A5#2645B61AC58FB0
(1705638951.128454) vcan0 123#846E
(1705638951.328863) vcan0 172#EA12040FAE71A27B
(1705638951.529211) vcan0 7DA#EA
(1705638951.729632) vcan0 07C#5F82382496AA7F17
(1705638951.930054) vcan0 763#5FE57C291E6C59
(1705638952.130488) vcan0 2BC#D1189864AC5F6656
(1705638952.330900) vcan0 453#2C2AAA16F8F8A039
(1705638952.494487) vcan0 705#10E60E2DC03BA00A
(1705638952.531299) vcan0 001#BD8851
(1705638952.731715) vcan0 025#0F
(1705638952.932136) vcan0 74B#45DB2D4F25BFF713
(1705638953.095282) vcan0 705#E9C5096EEA63DB04
(1705638953.132562) vcan0 2CA#31A1ED2247A37E46
(1705638953.333099) vcan0 64C#
(1705638953.533506) vcan0 7C7#CDA9F55E83CA9F27
(1705638953.733940) vcan0 3D4#2F2A067E2740C427
(1705638953.896971) vcan0 705#95D85239DC15F74A
(1705638953.934379) vcan0 738#1F396561399FAF7A
(1705638954.134816) vcan0 3AE#5DF0ED58D353422A
(1705638954.297660) vcan0 705#51769532530CCB0A
(1705638954.335003) vcan0 11D#6ABDCD7D6878A74A
(1705638954.498110) vcan0 705#2D73760E64F2D937
(1705638954.535422) vcan0 165#
(1705638954.698535) vcan0 705#10393661BF6FAA02
(1705638954.735812) vcan0 5DF#77EF12152C749276
(1705638954.936221) vcan0 44E#DBB12E64
(1705638955.099504) vcan0 705#A2F954774D01E114
(1705638955.136628) vcan0 090#98D6B32264042C00
(1705638955.299936) vcan0 705#54A8CF3AD90D4344
(1705638955.337029) vcan0 647#8C44F02780BD2F
(1705638955.537445) vcan0 523#B95CDF05D1187B7B
(1705638955.700800) vcan0 705#3B94085687A3543B
(1705638955.737694) vcan0 788#A56CBD25A5F8E5
(1705638955.938101) vcan0 083#0E718D3BE9A18F1D
(1705638956.101425) vcan0 705#F79DCF5608C5537E
(1705638956.138543) vcan0 2BF#19EE236C9FC03912
(1705638956.338928) vcan0 15A#
(1705638956.502328) vcan0 705#1BC6297A87AE5F3F
(1705638956.539353) vcan0 2E4#BE89805F748B
(1705638956.702513) vcan0 705#639ED66597E79520
(1705638956.739758) vcan0 24F#D88F006F9760
(1705638956.902710) vcan0 705#76C91962DDAF9331
(1705638956.940187) vcan0 11E#171E0142
(1705638957.140616) vcan0 210#
(1705638957.303077) vcan0 705#C0CB6A78D351B863
(1705638957.341046) vcan0 7E7#3D8A384F6BD009
(1705638957.541211) vcan0 5C7#547299508628A30D
(1705638957.703908) vcan0 705#FC064542424F5A2B
(1705638957.741640) vcan0 3E7#25E9DC1F4125AC40
(1705638957.942054) vcan0 5FD#
(1705638958.142258) vcan0 497#55E41021E646C3
(1705638958.304910) vcan0 705#63A64E203319B06A
(1705638958.342718) vcan0 4FE#7DA7947C1CEEBB29
(1705638958.542896) vcan0 092#5DA41402
(1705638958.705672) vcan0 705#39BE5A2DB27DB04A
(1705638958.743319) vcan0 065#3A2C9B254C08242D
(1705638958.943873) vcan0 727#B7D82D60EE1496
(1705638959.144086) vcan0 1C3#743D397AAA558C24
(1705638959.344466) vcan0 378#EB7A386575E9782B
(1705638959.545001) vcan0 48A#5642B55D
(1705638959.707823) vcan0 705#8A3070089F456F77
(1705638959.745397) vcan0 27C#0890261E7AD7B715
(1705638959.908239) vcan0 705#50B0D9272E8E5633
(1705638959.945810) vcan0 2D9#96C5733F6B
(1705638960.146273) vcan0 51A#0D7E22
(1705638960.346679) vcan0 562#CB45EB0C898CEA
(1705638960.509262) vcan0 705#66699D11AC8D0D1F
(1705638960.546909) vcan0 0BE#77A180
(1705638960.747341) vcan0 18E#2B68B73B0715650B
(1705638960.910120) vcan0 705#97A68E37FB7EE05E
(1705638960.947761) vcan0 586#7CFEDD36104A
(1705638961.148190) vcan0 0EB#3293F2
(1705638961.348615) vcan0 77E#E122E34F57023122
(1705638961.510957) vcan0 705#2C129E6B804BEB60
(1705638961.549037) vcan0 2BF#C2E50A58D95725
(1705638961.749463) vcan0 26A#5895EC74CC2F5068
(1705638961.949900) vcan0 616#56BC3A4F
(1705638962.150067) vcan0 1A7#5681A7263563D10C
(1705638962.311962) vcan0 705#5275EE0FAF456F1B
(1705638962.350495) vcan0 4B9#3C78
(1705638962.512148) vcan0 705#AB17192915AF0C2D
(1705638962.550925) vcan0 498#508CD40283CD8F2E
(1705638962.712332) vcan0 705#53991D2748C35741
(1705638962.751352) vcan0 78C#EA18
(1705638962.912531) vcan0 705#AC98D26FDF69E678
(1705638962.951781) vcan0 2BC#622132197B9DB462
(1705638963.112938) vcan0 705#2EDF5165B7524C05
(1705638963.152195) vcan0 442#55F5D977
(1705638963.313124) vcan0 705#7F0570324F27720F
(1705638963.352422) vcan0 2F4#79A624010A79553E
(1705638963.552806) vcan0 5D1#DFE7D14D785F8F5D
(1705638963.753229) vcan0 09C#AEC2606A56FD
(1705638963.914155) vcan0 705#013EAB6BEA960422
(1705638963.953463) vcan0 2B8#953FD53B501F275A
(1705638964.153894) vcan0 1A3#D4ECB6082F
(1705638964.354303) vcan0 367#3A88542C232E516B
(1705638964.554710) vcan0 18A#9FCB054ECC650572
(1705638964.716056) vcan0 705#9390E94267A99D63
(1705638964.755122) vcan0 0C0#79DCD90A
(1705638964.955543) vcan0 3A1#BF94
(1705638965.155952) vcan0 5C1#EB10D47E5DA6784F
(1705638965.317351) vcan0 705#B932984FC126326B
(1705638965.356376) vcan0 5D4#B3A308338C38A754
(1705638965.517785) vcan0 705#DACBE0581FFEC93A
(1705638965.556776) vcan0 684#DD57CE2E27C0773D
(1705638965.757206) vcan0 72E#57
(1705638965.918743) vcan0 705#2911A41601245F48
(1705638965.957638) vcan0 26F#B9
(1705638966.158049) vcan0 32D#C6F10C45ED0B6A1B
(1705638966.319125) vcan0 705#C7034D2D207BD44A
(1705638966.358477) vcan0 54C#A2279818EEA0D523
(1705638966.558699) vcan0 131#61
(1705638966.759132) vcan0 0FF#4FDDBB07D41E405B
(1705638966.919902) vcan0 705#0927B930C178F95F
(1705638966.959430) vcan0 6E6#6057E7
(1705638967.159836) vcan0 44C#910567567A132A57
(1705638967.360262) vcan0 3EE#10AE22495E3E323F
(1705638967.560488) vcan0 079#57CA3912A63BF84C
(1705638967.760899) vcan0 322#944762686F60EB42
(1705638967.961311) vcan0 25C#5D01C1668DDB
(1705638968.161486) vcan0 397#7F12563B96648732
(1705638968.322664) vcan0 705#12F43E1ABE6BC00D
(1705638968.361953) vcan0 70A#6A83C70DF0EDEC1C
(1705638968.523087) vcan0 705#C3850835CB1A6108
(1705638968.562367) vcan0 0D2#5A33DC351ED57827
(1705638968.762896) vcan0 208#98E8A27EF77D9F32
(1705638968.963320) vcan0 7D4#55BCD1714E48C73D
(1705638969.163730) vcan0 573#F483BF0A9518EE3F
(1705638969.364160) vcan0 2CA#0479D90226CD7F02
(1705638969.525364) vcan0 705#C283F64ED50C551B
(1705638969.564561) vcan0 2BE#B4
(1705638969.725802) vcan0 705#27570C3C25D26148
(1705638969.764986) vcan0 61F#ECCAB9
(1705638969.965422) vcan0 302#1A732C22D41B
(1705638970.126509) vcan0 705#F1EDFE178671306A
(1705638970.165603) vcan0 121#F2F049292A
(1705638970.366030) vcan0 761#213134163547C139
(1705638970.566459) vcan0 034#838F8877A77D
(1705638970.727361) vcan0 705#55E62461E512CA45
(1705638970.766884) vcan0 422#3C96D21DECB66367
(1705638970.967319) vcan0 700#13
(1705638971.127750) vcan0 705#DA199F0994859462
(1705638971.167728) vcan0 1A2#1480B832C257BC
(1705638971.368158) vcan0 7FA#
(1705638971.528589) vcan0 705#8315360AD3B7354E
(1705638971.568575) vcan0 157#D1AE2A3678C2
(1705638971.768782) vcan0 67B#A275B862
(1705638971.929443) vcan0 705#54164922851F1810
(1705638971.969251) vcan0 14F#121D3E
(1705638972.169658) vcan0 439#2A67F8545C
(1705638972.330291) vcan0 705#48CB4B331F1F6103
(1705638972.370066) vcan0 00D#48BF67740E9F
(1705638972.570479) vcan0 4A7#CDB8FE154A96BD1D
(1705638972.731156) vcan0 705#7CDAA348F6B5EF4D
(1705638972.770899) vcan0 022#0C
(1705638972.971292) vcan0 3E2#1AEB7932391D1D2F
(1705638973.132105) vcan0 705#1B983C0F8713F45C
(1705638973.171722) vcan0 2FE#B1DF402E7A11CF48
(1705638973.372150) vcan0 1AF#56E74B4C
(1705638973.572323) vcan0 417#819C8E465190D80A
(1705638973.772746) vcan0 0FE#AD98DC170B715F75
(1705638973.973167) vcan0 112#1910D821B9
(1705638974.173594) vcan0 351#03A4863F730B
(1705638974.334528) vcan0 705#C662E83EA0FA0D57
(1705638974.374026) vcan0 1C8#90637136AA85B777
(1705638974.534989) vcan0 705#58B015291D40D550
(1705638974.574462) vcan0 507#E3A2D42606781409
(1705638974.735267) vcan0 705#46E9BA4C9A1A7919
(1705638974.774894) vcan0 096#8089E351
(1705638974.975312) vcan0 7E8#44D5236900D4
(1705638975.175737) vcan0 53F#5164CD7A3D
(1705638975.335844) vcan0 705#8C5DA405B1DCA15A
(1705638975.376153) vcan0 571#4897695B83768B59
(1705638975.536038) vcan0 705#A0E8EA5DBDF32D38
(1705638975.576569) vcan0 4F3#3C84
(1705638975.736249) vcan0 705#882B67045C989171
(1705638975.776785) vcan0 048#
(1705638975.977006) vcan0 24F#BAF75D2D57175217
(1705638976.177398) vcan0 5F3#5D8F66208996BB32
(1705638976.337511) vcan0 705#AE6DE95E457A4167
(1705638976.377805) vcan0 532#CEB8644C1AF5560F
(1705638976.537936) vcan0 705#AB0B384B9D2A5710
(1705638976.578264) vcan0 1B3#1AC9
(1705638976.738238) vcan0 705#49795124E413125D
(1705638976.778675) vcan0 7D8#2F253D1E49757430
(1705638976.978829) vcan0 269#CCEBFF095D7FB12B
(1705638977.139116) vcan0 705#1EBAB845864FD93F
(1705638977.179247) vcan0 3DA#A16F2F3522D4002C
(1705638977.379439) vcan0 048#3346A76198520B78
(1705638977.579609) vcan0 2A2#EF695D0F95786A50
(1705638977.780034) vcan0 08B#1E0F2603BDF57F0C
(1705638977.940596) vcan0 705#CF459442A43EF55C
(1705638977.980470) vcan0 229#D7EAD61BDC9B8732
(1705638978.180911) vcan0 5FF#CF9A
(1705638978.341461) vcan0 705#73D33240229BDA31
(1705638978.381339) vcan0 15D#20CBC21AC70BFF21
(1705638978.581776) vcan0 476#248BB04D50E08679
(1705638978.782262) vcan0 6F4#73B487253D
(1705638978.982689) vcan0 61F#D5115262C130
(1705638979.183110) vcan0 093#56A98739
(1705638979.343454) vcan0 705#4384FA30F761824F
(1705638979.383532) vcan0 510#DB06EC05
(1705638979.543897) vcan0 705#75099D09B78A8511
(1705638979.583961) vcan0 060#152309
(1705638979.744309) vcan0 705#65826D1AE6135D50
(1705638979.784394) vcan0 5A5#362C9A7B
(1705638979.944724) vcan0 705#B293CF1CB659F112
(1705638979.984835) vcan0 5E3#C992207459FA
(1705638980.145137) vcan0 705#B241606EABCE7302
(1705638980.185130) vcan0 642#AADAE06537D53665
(1705638980.385561) vcan0 0B3#74947D4FD27E8F3E
(1705638980.585968) vcan0 1C3#93AFAC2756C2CB28
(1705638980.786382) vcan0 20D#75D337221D97F244
(1705638980.986788) vcan0 15D#
(1705638981.147257) vcan0 705#DFF65C6BE5E9A730
(1705638981.187197) vcan0 403#1D68663BA871CC06
(1705638981.347813) vcan0 705#A80D070D286EA261
(1705638981.387613) vcan0 750#ABF8ED
(1705638981.588032) vcan0 3AA#8C775635
(1705638981.748645) vcan0 705#102BBF7E03FAAC05
(1705638981.788463) vcan0 162#230FB46D15C2
(1705638981.988885) vcan0 153#E7402012166B37
(1705638982.189410) vcan0 1E0#6D2D0362ED6B8012
(1705638982.389838) vcan0 163#0A03
(1705638982.590260) vcan0 332#
(1705638982.790687) vcan0 2CC#DE18127D1C62A53D
(1705638982.991111) vcan0 0EE#4FDFA1069874C222
(1705638983.191541) vcan0 4FE#84AE3F2B6046EE31
(1705638983.352160) vcan0 705#A6BCCC6B0603847F
(1705638983.391971) vcan0 112#75087F05658ACF7D
(1705638983.592408) vcan0 13F#7CF5063720AB2645
(1705638983.752987) vcan0 705#2445F33F9AFF7172
(1705638983.792828) vcan0 1D6#0D17A75739836D6C
(1705638983.993241) vcan0 3CB#F9DD5025FDFEA349
(1705638984.193477) vcan0 378#33A6E93F449E
(1705638984.354232) vcan0 705#C01FE371DC0AC106
(1705638984.393862) vcan0 711#6000
(1705638984.594265) vcan0 09B#977CDA1E996D0A36
(1705638984.794673) vcan0 68B#F9B3F8679DDFD444
(1705638984.995083) vcan0 0C3#026AA442034A3339
(1705638985.195504) vcan0 5CA#23F5597EA03F8356
(1705638985.395929) vcan0 267#
(1705638985.556858) vcan0 705#9857C252C5F53D13
(1705638985.596364) vcan0 648#30A5
(1705638985.796799) vcan0 349#050082
(1705638985.957725) vcan0 705#9AA3C570909D5716
(1705638985.997235) vcan0 275#59925B1311DB
(1705638986.197680) vcan0 015#
(1705638986.358625) vcan0 705#70D44B6A2E978561
(1705638986.398114) vcan0 20B#3DF6B310
(1705638986.598545) vcan0 112#
(1705638986.759471) vcan0 705#6A9F9829665DA001
(1705638986.798958) vcan0 7BE#7DFE947026
(1705638986.999387) vcan0 625#58E8B30F6E9407
(1705638987.199811) vcan0 229#2FF6230672CD570C
(1705638987.400042) vcan0 0EC#CC579B23
(1705638987.600464) vcan0 69A#72BEDE42B0
(1705638987.761085) vcan0 705#DDA3F3087148A03B
(1705638987.800883) vcan0 115#50ED4B5E21337D65
(1705638988.001096) vcan0 3C1#F055DB44D3BCE63E
(1705638988.201534) vcan0 3CE#B07B
(1705638988.401924) vcan0 4B7#B245156FDC924461
(1705638988.562280) vcan0 705#3B81AC39F53F7064
(1705638988.602324) vcan0 385#4A274C53AE9DDA18
(1705638988.762697) vcan0 705#731770635FDF080E
(1705638988.802734) vcan0 393#216B32257F94F64A
(1705638989.003144) vcan0 3AE#E1775504480A4915
(1705638989.203550) vcan0 513#F8E0B5
(1705638989.363939) vcan0 705#60BFC10C6641E109
(1705638989.403940) vcan0 570#49D96E4E31418973
(1705638989.564114) vcan0 705#43CFFC5CAED67827
(1705638989.604363) vcan0 1D7#05FE6F32A5F55937
(1705638989.804740) vcan0 1FB#31F9B546B2
(1705638990.005161) vcan0 3E3#8FA95346
(1705638990.205597) vcan0 4EF#17CDE36A8228B03C
(1705638990.365829) vcan0 705#3149C6004D70D54C
(1705638990.406015) vcan0 653#02BDA60701022654
(1705638990.566260) vcan0 705#EF35F01E88F18106
(1705638990.606557) vcan0 325#490C6F
(1705638990.806986) vcan0 336#614E
(1705638991.007412) vcan0 38B#D8E95610626D280C
(1705638991.207847) vcan0 6E4#07638243DF480A14
(1705638991.367760) vcan0 705#00154A7ABE433C4C
(1705638991.408253) vcan0 193#925F197976552523
(1705638991.608681) vcan0 31C#DF
(1705638991.809111) vcan0 1FA#8E3048314DC8
(1705638991.969142) vcan0 705#688C69316CFDCE60
(1705638992.009535) vcan0 22E#
(1705638992.209810) vcan0 273#8C2DB521A98D1B18
(1705638992.369964) vcan0 705#4ADA6C383E3AB725
(1705638992.410449) vcan0 3DA#5036E934657FFD31
(1705638992.570378) vcan0 705#37B67A202D70A744
(1705638992.610850) vcan0 397#C7EC253E7BFAAB16
(1705638992.811258) vcan0 006#5B43B62A99693656
(1705638992.971208) vcan0 705#5CCD7F477CDC9C6A
(1705638993.011661) vcan0 406#10BF5B792347E44B
(1705638993.212093) vcan0 40E#2E4F7C400886493C
(1705638993.372085) vcan0 705#EB2DD44C50EC1853
(1705638993.412508) vcan0 5E5#564E66081320C53E
(1705638993.572500) vcan0 705#AD12594BBD8B6B63
(1705638993.612942) vcan0 54C#66A5D107
(1705638993.772930) vcan0 705#1DCE56716F7D7966
(1705638993.813373) vcan0 73C#691D
(1705638993.973366) vcan0 705#1A04C147D709E317
(1705638994.013556) vcan0 6DF#7B322F7F77F22E00
(1705638994.213991) vcan0 3E2#F2EC
(1705638994.414420) vcan0 710#82E52060171BDE4A
(1705638994.614654) vcan0 33A#3A62
(1705638994.774949) vcan0 705#63F73C1C9D7FEE69
(1705638994.815080) vcan0 081#5105E704667EA316
(1705638994.975393) vcan0 705#0FF76D46F94C6E31
(1705638995.015507) vcan0 125#799E6855719EB6
(1705638995.216008) vcan0 44B#
(1705638995.416421) vcan0 6D2#9E0E8335B2659713
(1705638995.616836) vcan0 753#2958C61336139629
(1705638995.817254) vcan0 05C#1F8F80336DCF0431
(1705638996.017685) vcan0 569#84
(1705638996.177733) vcan0 705#0640B44E07513D10
(1705638996.218055) vcan0 134#ECC7301AB5012535
(1705638996.378133) vcan0 705#DA0B171A914C7E32
(1705638996.418486) vcan0 626#1C80C84B4B2FE732
(1705638996.578362) vcan0 705#EB11310B444D7C0E
(1705638996.618887) vcan0 0E4#BDCD9D262F
(1705638996.778782) vcan0 705#2A88F240A844B92A
(1705638996.819435) vcan0 275#B7E8AC4A48792C05
(1705638996.979030) vcan0 705#33301D27B73B2771
(1705638997.019852) vcan0 788#FADEC318DBE6
(1705638997.220237) vcan0 070#11FA4A
(1705638997.379594) vcan0 705#8E107B2124FD8932
(1705638997.420656) vcan0 43E#
(1705638997.580017) vcan0 705#B5582A1E9C8F3539
(1705638997.621086) vcan0 5D2#4B3AF11406178B7A
(1705638997.780458) vcan0 705#982C457E8217D51B
(1705638997.821497) vcan0 77B#BB18B02FA29D5A
(1705638997.980904) vcan0 705#EB7DD944C27C1744
(1705638998.021920) vcan0 774#EDCC410358F09E
(1705638998.222337) vcan0 76D#877DFA5CE219151B
(1705638998.381751) vcan0 705#4151D625A2C8E22C
(1705638998.422763) vcan0 698#2A93412020DED428
(1705638998.582239) vcan0 705#B9C0D6048EDA1338
(1705638998.622940) vcan0 595#FCC48945
(1705638998.823364) vcan0 147#D12EA3038625BB3C
(1705638998.983127) vcan0 705#4D7AB126EB922320
(1705638999.023790) vcan0 03E#2D17190010460D13
(1705638999.224206) vcan0 1C8#165D980D4489D915
(1705638999.383996) vcan0 705#FB24F61E32588339
(1705638999.424622) vcan0 3AF#E6
(1705638999.584440) vcan0 705#89EB5A76E7B0AD57
(1705638999.625034) vcan0 6A9#7B1305
(1705638999.784660) vcan0 705#38CA8B6F7FDDF255
(1705638999.825462) vcan0 67E#F8DF7F
(1705638999.985075) vcan0 705#258FDF7B6A5BCC1A
(1705639000.025898) vcan0 742#3703FD
(1705639000.185256) vcan0 705#6A3E17637F341D3E
(1705639000.226293) vcan0 547#DCEA37
(1705639000.426497) vcan0 740#15B4116C7ECFFB46
(1705639000.586085) vcan0 705#948B7F047946CA68
(1705639000.626884) vcan0 0B8#8E15
(1705639000.827288) vcan0 4BB#C523A93A
(1705639000.986951) vcan0 705#800418207B9E4870
(1705639001.027710) vcan0 076#8E93C7571FF7AA5D
(1705639001.187390) vcan0 705#011F68745B024D0E
(1705639001.228136) vcan0 67E#35BD1533FCCCA81D
(1705639001.387833) vcan0 705#9A8651275627432D
(1705639001.428543) vcan0 00C#13F2D0644E2F7360
(1705639001.588239) vcan0 705#56EBC40CE0129E23
(1705639001.628976) vcan0 050#2584F11998F51D7E
(1705639001.829408) vcan0 57D#27
(1705639002.029601) vcan0 0AF#3C14AC126739713F
(1705639002.189540) vcan0 705#27748164A8AA2072
(1705639002.230036) vcan0 37E#E8D340643920E606
(1705639002.389984) vcan0 705#8DB9E2755FE9AC4C
(1705639002.430468) vcan0 46F#A490474CE5844079
(1705639002.590510) vcan0 705#95C72634F3742C51
(1705639002.630896) vcan0 258#047C
(1705639002.790726) vcan0 705#2BB07E2AA99A1B0E
(1705639002.831310) vcan0 33B#D34DC3674803A857
(1705639003.031737) vcan0 666#96321B38B7E6
(1705639003.232150) vcan0 530#4FDC0B60ADF2B62B
(1705639003.392161) vcan0 705#8EFFE850C444ED49
(1705639003.432580) vcan0 5BD#6B3767776CAE
(1705639003.632984) vcan0 0B2#D4E7AB0B309CB7
(1705639003.833414) vcan0 571#6ABC9D33E0111F4B
(1705639003.993303) vcan0 705#07B95F7955FB0B68
(1705639004.033846) vcan0 36A#C5965F44C2F59D4E
(1705639004.193712) vcan0 705#E720DA227C6F8D4C
(1705639004.234280) vcan0 140#9976B8187B3CD02C
(1705639004.434513) vcan0 402#C33F78046922E352
(1705639004.634909) vcan0 453#2009D1348439726E
(1705639004.835313) vcan0 116#312C291AD34ED610
(1705639004.995396) vcan0 705#C5D43E08429CF23A
(1705639005.035715) vcan0 5E5#40FD105D97DE6349
(1705639005.236129) vcan0 743#C77A1B76
(1705639005.436536) vcan0 0D0#95
(1705639005.636956) vcan0 43F#FD491E367FF5924D
(1705639005.837219) vcan0 024#FB31637A272C
(1705639005.997561) vcan0 705#5C2FAC4ABA58424B
(1705639006.037646) vcan0 503#904E65355789621C
(1705639006.237848) vcan0 418#
(1705639006.398454) vcan0 705#5A3CFA1BE7368E78
(1705639006.438273) vcan0 51F#025CE55A04837021
(1705639006.638702) vcan0 2A9#9B61
(1705639006.839095) vcan0 656#A126
(1705639006.999705) vcan0 705#81909B5710331C61
(1705639007.039535) vcan0 394#6133DD60D39747
(1705639007.239948) vcan0 292#538DDA01B60A4A21
(1705639007.440371) vcan0 5F4#DD36CC03F8C22435
(1705639007.600779) vcan0 705#812D601A59E34167
(1705639007.640803) vcan0 10C#4F4C875125158836
(1705639007.801072) vcan0 705#82547B19C8CD6051
(1705639007.841238) vcan0 51D#532297003C1A7B22
(1705639008.001484) vcan0 705#4E8BB61A24FD0C1C
(1705639008.041666) vcan0 636#409DEB43DF
(1705639008.242086) vcan0 797#CC521A0AED152634
(1705639008.442512) vcan0 33E#14F5822DD2EE581A
(1705639008.602546) vcan0 705#B4291732929BA83C
(1705639008.642740) vcan0 6A4#A586A04E36
(1705639008.802972) vcan0 705#F9E4F22045D79706
(1705639008.843133) vcan0 5D3#ED0B4036C7E32D0B
(1705639009.043513) vcan0 346#BFA652405304D247
(1705639009.243909) vcan0 038#78195A7E55A5A516
(1705639009.404239) vcan0 705#A0A7FD2AD922A663
(1705639009.444305) vcan0 238#92BF20396F00906F
(1705639009.604673) vcan0 705#698B6D0F5A50067E
(1705639009.644725) vcan0 221#4E51
(1705639009.845129) vcan0 3AE#A6A70622EC367C3B
(1705639010.005513) vcan0 705#EDD891782B303832
(1705639010.045522) vcan0 588#BE25D5552CF42C51
(1705639010.245936) vcan0 52F#63F522
(1705639010.406520) vcan0 705#39F13938A74C0870
(1705639010.446356) vcan0 05C#
(1705639010.646789) vcan0 41A#F5977B09520CAD49
(1705639010.847305) vcan0 097#A8B15260D0EAD54E
(1705639011.007675) vcan0 705#B6FB7E1C5D9CF673
(1705639011.047732) vcan0 539#3FEB653E5AA73461
(1705639011.208117) vcan0 705#3B237474B7D5BE6F
(1705639011.247918) vcan0 60C#1239154FBA294C42
(1705639011.408541) vcan0 705#D97DF923577DBC1A
(1705639011.448445) vcan0 0A8#A660C87D30FEBB37
(1705639011.648864) vcan0 572#5CF2E808
(1705639011.849292) vcan0 2C8#A3ADD42124F3036D
(1705639012.009734) vcan0 705#694401320044CA7D
(1705639012.049720) vcan0 10F#C686AD2E2A2DDE61
(1705639012.210160) vcan0 705#0AAEBC0043EC215F
(1705639012.250160) vcan0 1F6#7C398B2B8DDAAD5F
(1705639012.450660) vcan0 029#5DC5832E
(1705639012.610921) vcan0 705#A9561D3D934E061F
(1705639012.650811) vcan0 45E#BC64FA276B2AD13B
(1705639012.851031) vcan0 52A#25541D7ED2CD386A
(1705639013.011788) vcan0 705#B727B16B8A512B61
(1705639013.051450) vcan0 687#02CCF421FAFBD028
(1705639013.212220) vcan0 705#A6637A24C6749F55
(1705639013.251848) vcan0 330#9B3E6047F86D9647
(1705639013.452275) vcan0 61E#1C619A342D8F5825
(1705639013.652678) vcan0 0AC#57BC36
(1705639013.813520) vcan0 705#3C723569C103F116
(1705639013.853086) vcan0 69F#2FB53878
(1705639014.013949) vcan0 705#7AB2DB0C2A48F248
(1705639014.053507) vcan0 0F8#2B943522573DF163
(1705639014.214391) vcan0 705#E222BA6234F6AE49
(1705639014.253936) vcan0 329#C267C21F53186E
(1705639014.414624) vcan0 705#E580CE6E8BEB766F
(1705639014.454365) vcan0 6B6#25E6A6503E156B
(1705639014.615056) vcan0 705#902BEB6A3442942C
(1705639014.654616) vcan0 0B3#38113C52E4AB48
(1705639014.815493) vcan0 705#964C2709C295AF3D
(1705639014.855040) vcan0 086#DC19DF
(1705639015.055467) vcan0 412#D1A5BB5CBE244E1C
(1705639015.216352) vcan0 705#A9E1BA3F1F21DB4D
(1705639015.255897) vcan0 2DC#60FFD8347B693264
(1705639015.456061) vcan0 7FD#
(1705639015.656499) vcan0 71D#4C764539465A7467
(1705639015.856891) vcan0 556#9A72E24D0C64476D
(1705639016.017717) vcan0 705#03908C7D86A8EF6F
(1705639016.057059) vcan0 1F6#4A79B216A90AAD10
(1705639016.257478) vcan0 2E7#8DB6
(1705639016.457896) vcan0 256#1192016668165C05
(1705639016.658437) vcan0 363#273B
(1705639016.858624) vcan0 20B#BA17423D08F263
(1705639017.019650) vcan0 705#857E8203658D0020
(1705639017.059039) vcan0 717#FE2AB812341E6357
(1705639017.259271) vcan0 46C#7B78D73EC2F9C30A
(1705639017.459647) vcan0 759#CE5D0B784F
(1705639017.660033) vcan0 3D4#F8239A2CBB4E683C
(1705639017.860427) vcan0 19B#28CA066BF13B
(1705639018.060829) vcan0 2F0#5A52937F53F6B261
(1705639018.261237) vcan0 41C#92
(1705639018.422513) vcan0 705#7F70195E8F32F235
(1705639018.461644) vcan0 008#3020D97720B7557B
(1705639018.622747) vcan0 705#B214422664E3E52F
(1705639018.661930) vcan0 449#54D5B852B540A553
(1705639018.823187) vcan0 705#19FBFE1A27D04A4C
(1705639018.862348) vcan0 478#773A695ED16B947B
(1705639019.023604) vcan0 705#42776B4DAC4ECD4F
(1705639019.062765) vcan0 0E4#20858117B97C
(1705639019.263187) vcan0 75F#74CBF505FAD0DE5C
(1705639019.463607) vcan0 39F#EC0C16578F2E103C
(1705639019.624693) vcan0 705#5B135719F86E8106
(1705639019.664010) vcan0 1D6#E224C31DF285
(1705639019.864440) vcan0 4C7#1AB43F10
(1705639020.064933) vcan0 5C0#EF6BFD6A099A7345
(1705639020.225774) vcan0 705#884A6C105497A232
(1705639020.265361) vcan0 778#BFDA1819
(1705639020.426220) vcan0 705#07406E76D307BC10
(1705639020.465787) vcan0 713#C277CD64F8C7
(1705639020.626641) vcan0 705#D581E81D851CFE36
(1705639020.666266) vcan0 57C#B144
(1705639020.866686) vcan0 5FB#D6ED07109A
(1705639021.027360) vcan0 705#A0B92E7BE08E681F
(1705639021.067117) vcan0 5C2#2958
(1705639021.267388) vcan0 208#8B1DE045CF46AE35
(1705639021.467821) vcan0 67F#9EFB55253F
(1705639021.668226) vcan0 5EF#49666D7367C5E270
(1705639021.829023) vcan0 705#362EF351A5FD840E
(1705639021.868557) vcan0 0D2#58D11B5AE537501D
(1705639022.069206) vcan0 63E#DDFFE00ABB03FF51
(1705639022.229861) vcan0 705#18AAD9629E68051C
(1705639022.269610) vcan0 5FC#96202805F8EBA27B
(1705639022.470017) vcan0 4B4#9215B92676FA232D
(1705639022.670433) vcan0 12E#0F92391D3663153A
(1705639022.831106) vcan0 705#D792A125FB652222
(1705639022.870853) vcan0 2C7#05AAC36F47313870
(1705639023.031649) vcan0 705#B103193A9B1F511D
(1705639023.071276) vcan0 140#86FD311E
(1705639023.232066) vcan0 705#38C35D1EBFE4E841
(1705639023.271707) vcan0 532#97EC540804B67673
(1705639023.472117) vcan0 4D7#E9EDC61016FB2D22
(1705639023.632918) vcan0 705#A30D6523E91D000B
(1705639023.672529) vcan0 709#D1FE2C74064D92
(1705639023.833349) vcan0 705#0157102F204CF35C
(1705639023.872938) vcan0 255#FE3835580987BA
(1705639024.073362) vcan0 5D4#
(1705639024.234004) vcan0 705#659D4D61A484BB7F
(1705639024.273784) vcan0 44C#399AE84414A7961F
(1705639024.434268) vcan0 705#A847AC037BB9E944
(1705639024.473990) vcan0 32A#5BD8CE0F6B446B43
(1705639024.634769) vcan0 705#BFF9C636A0AB5E22
(1705639024.674416) vcan0 1E2#9B
(1705639024.835144) vcan0 705#5CC8DF20783E0048
(1705639024.874846) vcan0 1B1#18AD
(1705639025.075224) vcan0 622#9ED9
(1705639025.235728) vcan0 705#B223743861057720
(1705639025.275620) vcan0 0C9#316A8F431EBBBF6C
(1705639025.435993) vcan0 705#92D8935C9E38B23E
(1705639025.476029) vcan0 7D7#28427A49AB25FB7B
(1705639025.676419) vcan0 1C0#AD5CCE060CAE8027
(1705639025.836863) vcan0 705#EB37B110429D2711
(1705639025.876815) vcan0 737#20551747629A
(1705639026.037442) vcan0 705#9F94B113B827B902
(1705639026.077221) vcan0 325#CDDE0D480725294A
(1705639026.237878) vcan0 705#690F4B221DC50664
(1705639026.277631) vcan0 35D#1C1C5C390E3D8744
(1705639026.438308) vcan0 705#D1F2E94CC50CB367
(1705639026.478045) vcan0 29A#961B4D22
(1705639026.638550) vcan0 705#DF7EFC0985067A1E
(1705639026.678618) vcan0 436#E8D5BD32FF
(1705639026.838965) vcan0 705#67356B77E1CE593F
(1705639026.879034) vcan0 5A4#1EA84E0B7BC5D703
(1705639027.079464) vcan0 349#26EBD27F09D5
(1705639027.239841) vcan0 705#088EDE332AA1C354
(1705639027.279866) vcan0 5EE#15834554
(1705639027.440261) vcan0 705#E5AEA922BD795731
(1705639027.480294) vcan0 6BA#871F3527DF79
(1705639027.640701) vcan0 705#3AF4190199528D4D
(1705639027.680706) vcan0 5B1#E79EE41C
(1705639027.841129) vcan0 705#78578A6A858A3E5E
(1705639027.881130) vcan0 0BC#1C46B1
(1705639028.041568) vcan0 705#D606EE30241FF071
(1705639028.081537) vcan0 437#13A40C
(1705639028.281973) vcan0 6E8#6DD54B208C24A116
(1705639028.482405) vcan0 215#08EA781A5E9D291F
(1705639028.642831) vcan0 705#5A671F1F3EA0216B
(1705639028.682588) vcan0 7D1#6772EE4BBF158528
(1705639028.843237) vcan0 705#05DB6869A5D58C62
(1705639028.883010) vcan0 502#E59A174BBD5B4573
(1705639029.083439) vcan0 5B2#9CD5004664D3D32D
(1705639029.244088) vcan0 705#7481151097B5671D
(1705639029.283835) vcan0 0C1#72DCFD
(1705639029.484415) vcan0 786#D4EC090CBEB36C2B
(1705639029.644949) vcan0 705#6EAD7B38B7582B41
(1705639029.684819) vcan0 442#2C9C292D2ADBEC3E
(1705639029.845380) vcan0 705#FB251F0E2FB0B52B
(1705639029.885225) vcan0 2E3#B6FF8D55F8C4F813
(1705639030.045808) vcan0 705#CB3BEA7405B7A35C
(1705639030.085642) vcan0 725#56622233F6567379
(1705639030.286059) vcan0 6ED#B66CF821EFDB3F2B
(1705639030.486483) vcan0 23A#AC37851EEC97D55A
(1705639030.686911) vcan0 207#506BA908C87AEC40
(1705639030.847642) vcan0 705#50A1EF3474299470
(1705639030.887339) vcan0 1CC#467CAA
(1705639031.087738) vcan0 252#1165FE2B94EE034D
(1705639031.288158) vcan0 202#BEC9F00BE604AC37
(1705639031.448729) vcan0 705#DAEB877B33B34B41
(1705639031.488573) vcan0 2D6#DEC9A44B
(1705639031.649156) vcan0 705#0A690431A160C779
(1705639031.688980) vcan0 333#F2B8201920
(1705639031.849589) vcan0 705#D3380E349D86E607
(1705639031.889401) vcan0 0F2#0F4E18072CCB1C1D
(1705639032.050030) vcan0 705#2193561568C2D07C
(1705639032.089823) vcan0 543#1963F2774AEF8507
(1705639032.290353) vcan0 305#136A7248D1148F51
(1705639032.450866) vcan0 705#94B40250B1B73807
(1705639032.490766) vcan0 62C#24C620527E80993C
(1705639032.651343) vcan0 705#F47D9B1812437068
(1705639032.691192) vcan0 773#126F9D0976
(1705639032.851751) vcan0 705#92E7554C62E45F1D
(1705639032.891620) vcan0 472#
(1705639033.092047) vcan0 245#4401921D78B59248
(1705639033.252582) vcan0 705#AA8D6D62EA52C45C
(1705639033.292716) vcan0 46F#98276B246245
(1705639033.453001) vcan0 705#15AAA57FC53E4C58
(1705639033.492933) vcan0 7DE#8E10A90B210DF5
(1705639033.693342) vcan0 363#6CFC7A21688E44
(1705639033.893750) vcan0 211#3AA3D32C3D587A32
(1705639034.054303) vcan0 705#6A8E8E45C373B552
(1705639034.094205) vcan0 4D8#BCD8136F4B9CDB24
(1705639034.294638) vcan0 494#C1E5771306C15A54
(1705639034.495043) vcan0 09F#4F603F52E4824C05
(1705639034.695470) vcan0 458#5C38DF4D
(1705639034.895892) vcan0 3CA#29D6ED0A
(1705639035.096061) vcan0 59B#CA084532FFD0EE6E
(1705639035.256089) vcan0 705#5C0BB965F14E4335
(1705639035.296482) vcan0 25F#675F334A709C
(1705639035.496906) vcan0 3B5#AE
(1705639035.656939) vcan0 705#096B2C670324D811
(1705639035.697323) vcan0 400#D954934994000F73
(1705639035.857360) vcan0 705#1B5553029F283C0D
(1705639035.897750) vcan0 538#9AC16947D795E846
(1705639036.057800) vcan0 705#C9C5602509B7CA52
(1705639036.098227) vcan0 6B8#BB18354C10BB7842
(1705639036.258240) vcan0 705#E0F83E454686273F
(1705639036.298660) vcan0 37E#D74BDA5E489FFE
(1705639036.499093) vcan0 10B#F1
(1705639036.658858) vcan0 705#338EB2429FA5DD46
(1705639036.699306) vcan0 0B9#A6571B191863911A
(1705639036.859058) vcan0 705#C8F7782D3E2B6E51
(1705639036.899732) vcan0 0F2#89FFFA38A814010C
(1705639037.059463) vcan0 705#C0459F356E986F53
(1705639037.100163) vcan0 1AF#35CDB830AF2551
(1705639037.300387) vcan0 1A1#43266043D9D67F02
(1705639037.500779) vcan0 4A9#B16C684961CB226E
(1705639037.660753) vcan0 705#C8530B106EF02166
(1705639037.701182) vcan0 1C7#71869B30458DED2D
(1705639037.901583) vcan0 684#8E2CEC5D8F87103C
(1705639038.101993) vcan0 449#360E3D6602FD9C79
(1705639038.262037) vcan0 705#B85E396132041553
(1705639038.302422) vcan0 33B#1B602E142E14226F
(1705639038.502650) vcan0 4EA#D628237B
(1705639038.662875) vcan0 705#0B21045B17FA2356
(1705639038.703063) vcan0 3DB#48FC4D0D7C15DF20
(1705639038.863268) vcan0 705#88CF6F01DFF19C03
(1705639038.903464) vcan0 01A#55EC5E23C3747F7D
(1705639039.063706) vcan0 705#761814189F373C39
(1705639039.103889) vcan0 268#2440A26B3014
(1705639039.264141) vcan0 705#AB228E01D935635C
(1705639039.304316) vcan0 673#75A1D82DF7
(1705639039.504746) vcan0 0DD#863C27
(1705639039.664996) vcan0 705#00CEF1734093E159
(1705639039.705177) vcan0 583#298A8E1EBE00CE52
(1705639039.905438) vcan0 099#EC14F041
(1705639040.065882) vcan0 705#01E32A4C5BF1113B
(1705639040.105861) vcan0 1E8#1CA4
(1705639040.306273) vcan0 3CE#3FB3CD77
(1705639040.506705) vcan0 2EF#ABC0960C58
(1705639040.707139) vcan0 09B#88E1BF2C0ED7580A
(1705639040.867504) vcan0 705#142FE86C13663A51
(1705639040.907371) vcan0 764#058C6F3C41602A40
(1705639041.067907) vcan0 705#2EBA0A4D897E4E69
(1705639041.107799) vcan0 101#68ED1B6584E65C18
(1705639041.268311) vcan0 705#B6DD9C0035A1DC6A
(1705639041.308222) vcan0 349#42E7
(1705639041.508517) vcan0 1D6#66911B09BFAB4D36
(1705639041.669299) vcan0 705#C2F1075907EB197F
(1705639041.708894) vcan0 1F1#8249
(1705639041.869720) vcan0 705#E82EDA2A382F8A58
(1705639041.909291) vcan0 5E7#A7B9
(1705639042.070155) vcan0 705#97B121653A12B524
(1705639042.109695) vcan0 457#2E66
(1705639042.270664) vcan0 705#983F3F2D154B6536
(1705639042.310109) vcan0 321#016C83328542
(1705639042.471124) vcan0 705#CCD171481160C24C
(1705639042.510504) vcan0 2B4#C7A2A53BB51B
(1705639042.671531) vcan0 705#E4CF15774A2FF62A
(1705639042.710923) vcan0 092#39026F01DBD38418
(1705639042.871965) vcan0 705#12C8DD7B5E5EDE17
(1705639042.911314) vcan0 7C1#BE973C6B9869D35A
(1705639043.072399) vcan0 705#20B242048C18E964
(1705639043.111740) vcan0 5AA#57152111
(1705639043.272840) vcan0 705#CED3E34542F68565
(1705639043.312138) vcan0 6A6#5B8D00578D34FF6D
(1705639043.473271) vcan0 705#552BE8634C9BDD52
(1705639043.512553) vcan0 39B#64CD86
(1705639043.712977) vcan0 155#E58C
(1705639043.874132) vcan0 705#93EC7E0DF6BBBF56
(1705639043.913147) vcan0 349#FC7E800AFD45
(1705639044.113581) vcan0 0EC#B261C6
(1705639044.275050) vcan0 705#6DE4B47726AD2069
(1705639044.313890) vcan0 1F3#5A854D3FB4B9530B
(1705639044.514319) vcan0 566#4C23276611338453
(1705639044.714746) vcan0 63C#AD5267
(1705639044.876426) vcan0 705#0734DA3DE9168624
(1705639044.915140) vcan0 77D#70D9B57D18F30C39
(1705639045.076863) vcan0 705#D5EA940209C9C828
(1705639045.115570) vcan0 70B#0BEBAA7C
(1705639045.277290) vcan0 705#2D209E30D79CAC6E
(1705639045.315993) vcan0 267#
(1705639045.477711) vcan0 705#BAF683492CC89452
(1705639045.516417) vcan0 0D6#AD9BD334
(1705639045.678129) vcan0 705#4FEA916D808A571E
(1705639045.716723) vcan0 598#4113C73A8B773156
(1705639045.917130) vcan0 14A#3F318561B0AE9E07
(1705639046.078739) vcan0 705#BFD66B0CE666E710
(1705639046.117519) vcan0 5B4#C1E1225BF1FB8043
(1705639046.279170) vcan0 705#CEF6D22C534B9C08
(1705639046.317920) vcan0 52F#D4A03753AC249A54
(1705639046.518323) vcan0 477#C517A70D
(1705639046.718732) vcan0 119#
(1705639046.880453) vcan0 705#A727B375C38B7437
(1705639046.919117) vcan0 2C0#3051694F96EB8479
(1705639047.119524) vcan0 490#584D830D28B23D0F
(1705639047.281330) vcan0 705#EEF16227C696A76A
(1705639047.319941) vcan0 23C#B3296F65864BA652
(1705639047.520483) vcan0 136#36FA
(1705639047.720671) vcan0 77E#DBAA7E2AAE3C954D
(1705639047.921099) vcan0 066#5A612F22DD24E448
(1705639048.121656) vcan0 5F4#606073110DE7CD59
(1705639048.283281) vcan0 705#22F20654480EB66B
(1705639048.322073) vcan0 3EF#8DE217
(1705639048.483474) vcan0 705#D3585E7F3A70556F
(1705639048.522494) vcan0 4FF#45E272268FB96400
(1705639048.683859) vcan0 705#763E485C619D8316
(1705639048.722908) vcan0 09A#B76BA20FD60A952F
(1705639048.884270) vcan0 705#F072DA6108C5360C
(1705639048.923318) vcan0 038#5C563B026E899F3E
(1705639049.084692) vcan0 705#53BEF20B8D454D68
(1705639049.123745) vcan0 05C#5838
(1705639049.324175) vcan0 48A#89DC3B18
(1705639049.485527) vcan0 705#048461201591E567
(1705639049.524598) vcan0 6E3#CE61BE
(1705639049.685953) vcan0 705#74FD8334A7EDCA43
(1705639049.724941) vcan0 703#E4DB4376F2326A24
(1705639049.886387) vcan0 705#6501FE6641DA454F
(1705639049.925545) vcan0 672#A2
(1705639050.125950) vcan0 22E#00CDA71EC8129B
(1705639050.326367) vcan0 385#9E1D304EBDCB01
(1705639050.487700) vcan0 705#928B5A2CCD5D7B34
(1705639050.526570) vcan0 621#2B55A1667DBE615F
(1705639050.726988) vcan0 48D#585E082A
(1705639050.927414) vcan0 0B8#08
(1705639051.089006) vcan0 705#D7AB414C87CD907E
(1705639051.127843) vcan0 0C5#7394A246C82FF1
(1705639051.289426) vcan0 705#9DA76E5E47A0645D
(1705639051.328269) vcan0 205#BA625B0B779870
(1705639051.528695) vcan0 6C9#E8ABB32BF7201F7E
(1705639051.690279) vcan0 705#345A430CC0214A32
(1705639051.729108) vcan0 044#C033BA1CC9D33F00
(1705639051.929280) vcan0 19F#879F4128C07F011C
(1705639052.129709) vcan0 559#3E3E
(1705639052.291346) vcan0 705#B6BA4D28E4FD1C13
(1705639052.330143) vcan0 236#FD7A1527EEF2
(1705639052.530603) vcan0 778#8A92A8213D50
(1705639052.731025) vcan0 0DD#0580504BE28ACE2A
(1705639052.931454) vcan0 754#5A233F381DC6732F
(1705639053.092792) vcan0 705#8F04C46E39894653
